 (466.502981)  can1  338   [8]  00 00 00 00 00 00 00 00
 (466.504222)  can1  316   [8]  15 00 00 00 00 00 00 00
 (466.505960)  can1  545   [8]  12 00 00 00 00 01 00 00
 (466.513688)  can1  338   [8]  00 00 00 00 00 00 00 00
 (466.514718)  can1  316   [8]  05 00 00 00 00 1D 00 0B
 (466.516483)  can1  545   [8]  12 00 00 00 00 01 00 00
 (466.518328)  can1  613   [8]  87 7E 0A DB 2C 00 00 00
 (466.519528)  can1  615   [8]  00 00 00 11 03 00 00 00
 (466.520565)  can1  153   [8]  E4 49 00 FF 00 FF FF 80
 (466.521598)  can1  1F3   [8]  00 80 00 09 02 80 00 00
 (466.523381)  can1  338   [8]  00 00 00 00 00 00 00 00
 (466.524553)  can1  316   [8]  05 00 00 00 1D 1D 00 00
 (466.526153)  can1  545   [8]  12 00 00 00 00 01 00 00
 (466.527323)  can1  153   [8]  E4 49 00 FF 00 FF FF 80
 (466.528922)  can1  1F3   [8]  00 80 00 09 02 80 00 00
 (466.533690)  can1  338   [8]  00 00 00 00 00 00 00 00
 (466.534721)  can1  316   [8]  05 00 00 00 1D 1D 00 00
 (466.536521)  can1  329   [8]  11 6F D0 80 00 00 00 00
 (466.536972)  can1  1F5   [8]  02 83 00 00 80 91 00 00
 (466.538012)  can1  610   [8]  30 95 60 4B 50 00 00 00
 (466.540607)  can1  153   [8]  E4 49 00 FF 00 FF FF 80
 (466.541815)  can1  1F0   [8]  09 40 09 00 09 00 09 00
 (466.543454)  can1  1F3   [8]  00 80 00 08 02 80 00 00
 (466.544485)  can1  338   [8]  00 00 00 00 00 00 00 00
 (466.546119)  can1  545   [8]  12 00 00 00 00 01 00 00
 (466.546565)  can1  1F5   [8]  02 83 00 00 80 A1 00 00
 (466.547923)  can1  153   [8]  E4 49 00 FF 00 FF FF 80
 (466.548815)  can1  1F0   [8]  09 60 09 00 09 00 09 00
 (466.550606)  can1  1F3   [8]  00 80 00 08 02 80 00 00
 (466.553672)  can1  338   [8]  00 00 00 00 00 00 00 00
 (466.554708)  can1  316   [8]  05 00 00 00 1D 1D 00 00
 (466.556468)  can1  153   [8]  E4 49 00 FF 00 FF FF 80
 (466.556915)  can1  1F5   [8]  02 83 00 00 80 B1 00 00
 (466.562268)  can1  153   [8]  E4 49 00 FF 00 FF FF 80
 (466.563317)  can1  1F0   [8]  09 20 09 00 09 00 09 00
 (466.565103)  can1  338   [8]  00 00 00 00 00 00 00 00
 (466.565555)  can1  545   [8]  12 00 00 00 00 01 00 00
 (466.567191)  can1  1F5   [8]  02 83 00 00 80 C1 00 00
 (466.568970)  can1  153   [8]  E4 49 00 FF 00 FF FF 80
 (466.569874)  can1  1F0   [8]  09 40 09 00 09 00 09 00
 (466.570937)  can1  1F3   [8]  00 80 00 07 02 80 00 00
 (466.572882)  can1  1F5   [8]  02 83 00 00 80 D1 00 00
 (466.573773)  can1  338   [8]  00 00 00 00 00 00 00 00
 (466.575702)  can1  329   [8]  40 6F D0 01 00 00 00 00
 (466.576737)  can1  545   [8]  12 00 00 00 00 01 00 00
 (466.578374)  can1  1F3   [8]  00 80 00 07 02 80 00 00
 (466.583189)  can1  1F5   [8]  02 83 00 00 80 E1 00 00
 (466.584238)  can1  153   [8]  E4 49 00 FF 00 FF FF 80
 (466.586040)  can1  329   [8]  40 6F D0 01 00 00 00 00
 (466.586493)  can1  545   [8]  12 00 00 00 00 01 00 00
 (466.590263)  can1  153   [8]  E4 49 00 FF 00 FF FF 80
 (466.591318)  can1  1F0   [8]  09 20 09 00 09 00 09 00
 (466.593111)  can1  1F3   [8]  00 80 00 07 02 80 00 00
 (466.593563)  can1  1F5   [8]  02 83 00 00 80 F1 96 04
 (466.594607)  can1  545   [8]  12 00 00 00 00 01 00 00
 (466.597155)  can1  153   [8]  E4 49 00 FF 00 FF FF 80
 (466.597605)  can1  1F0   [8]  09 40 09 00 09 00 09 00
 (466.599115)  can1  1F3   [8]  00 80 00 06 02 80 00 00
 (466.601224)  can1  1F5   [8]  02 83 00 00 80 01 00 00
 (466.603673)  can1  338   [8]  00 00 00 00 00 00 00 00
 (466.604718)  can1  316   [8]  05 00 00 00 97 1D 00 00
 (466.606522)  can1  1F3   [8]  00 80 00 06 02 80 00 00
 (466.607421)  can1  545   [8]  12 00 00 00 00 01 00 00
 (466.609842)  can1  1F5   [8]  02 83 00 00 80 11 00 00
 (466.611470)  can1  153   [8]  E4 49 00 FF 00 FF FF 80
 (466.612364)  can1  1F0   [8]  09 00 09 00 09 00 09 00
 (466.613546)  can1  1F3   [8]  00 80 00 06 02 80 00 00
 (466.614580)  can1  338   [8]  00 00 00 00 00 00 00 00
 (466.616394)  can1  545   [8]  12 00 00 00 00 01 00 00
 (466.618329)  can1  153   [8]  E4 49 00 FF 00 FF FF 80
 (466.619536)  can1  1F0   [8]  09 20 09 00 09 00 09 00
 (466.621307)  can1  1F3   [8]  00 80 00 06 02 80 00 00
 (466.622051)  can1  1F5   [8]  02 83 00 00 80 21 00 00
 (466.623670)  can1  338   [8]  00 00 00 00 00 00 00 00
 (466.624702)  can1  316   [8]  05 00 00 00 93 1D 00 00
 (466.626462)  can1  545   [8]  12 00 00 00 00 01 00 00
 (466.627505)  can1  1F3   [8]  00 80 00 06 02 80 00 00
 (466.628543)  can1  1F5   [8]  02 83 00 00 80 31 00 00
 (466.632230)  can1  153   [8]  E4 49 00 FF 00 FF FF 80
 (466.633265)  can1  1F0   [8]  09 60 09 00 09 00 09 00
 (466.635056)  can1  1F3   [8]  00 80 00 06 02 80 00 00
 (466.635960)  can1  545   [8]  12 00 00 00 00 01 00 00
 (466.637313)  can1  615   [8]  00 00 00 11 03 00 00 00
 (466.638357)  can1  1F5   [8]  02 83 00 00 80 41 00 00
 (466.639546)  can1  153   [8]  E4 49 00 FF 00 FF FF 80
 (466.640604)  can1  1F3   [8]  00 80 00 05 02 80 00 00
 (466.643760)  can1  338   [8]  00 00 00 00 00 00 00 00
 (466.644858)  can1  316   [8]  05 00 00 00 93 1D 00 00
 (466.646659)  can1  545   [8]  12 00 00 00 00 01 00 00
 (466.647109)  can1  153   [8]  E4 49 00 FF 00 FF FF 80
 (466.648759)  can1  1F5   [8]  02 83 00 00 80 51 00 00
 (466.653277)  can1  153   [8]  E4 49 00 FF 00 FF FF 80
 (466.654320)  can1  1F0   [8]  09 40 09 00 09 00 09 00
 (466.656130)  can1  338   [8]  00 00 00 00 00 00 00 00
 (466.656584)  can1  545   [8]  12 00 00 00 00 01 00 00
 (466.657636)  can1  1F5   [8]  02 83 00 00 80 61 00 00
 (466.659882)  can1  153   [8]  E4 49 00 FF 00 FF FF 80
 (466.660776)  can1  1F0   [8]  09 60 09 00 09 00 09 00
 (466.661972)  can1  1F3   [8]  00 80 00 05 02 80 00 00
 (466.664321)  can1  338   [8]  00 00 00 00 00 00 00 00
 (466.665354)  can1  316   [8]  05 00 00 00 93 1D 00 00
 (466.666987)  can1  1F5   [8]  02 83 00 00 80 71 FB 7D
 (466.668016)  can1  153   [8]  E4 49 00 FF 00 FF FF 80
 (466.669652)  can1  1F3   [8]  00 80 00 05 02 80 00 00
 (466.673664)  can1  338   [8]  00 00 00 00 00 00 00 00
 (466.674714)  can1  316   [8]  05 00 00 00 93 1D 00 00
 (466.676506)  can1  1F3   [8]  00 80 00 05 02 80 00 00
 (466.676957)  can1  545   [8]  12 00 00 00 00 01 00 00
 (466.681303)  can1  153   [8]  E4 49 00 FF 00 FF FF 80
 (466.682347)  can1  1F0   [8]  09 40 09 00 09 00 09 00
 (466.684139)  can1  1F3   [8]  00 80 00 04 02 80 00 00
 (466.684591)  can1  338   [8]  00 00 00 00 00 00 00 00
 (466.686239)  can1  545   [8]  12 00 00 00 00 01 00 00
 (466.688041)  can1  153   [8]  E4 49 00 FF 00 FF FF 80
 (466.688942)  can1  1F0   [8]  09 60 09 00 09 00 09 00
 (466.690002)  can1  1F3   [8]  00 80 00 04 02 80 00 00
 (466.692684)  can1  1F5   [8]  02 83 00 00 80 A1 00 00
 (466.693758)  can1  338   [8]  00 00 00 00 00 00 00 00
 (466.695545)  can1  316   [8]  05 00 00 00 93 1D 00 00
 (466.696594)  can1  545   [8]  12 00 00 00 00 01 00 00
 (466.697792)  can1  1F3   [8]  00 80 00 04 02 80 00 00
 (466.701143)  can1  1F5   [8]  02 83 00 00 80 B1 00 00
 (466.702035)  can1  153   [8]  E4 49 00 FF 00 FF FF 80
 (466.703096)  can1  1F0   [8]  09 20 09 00 09 00 09 00
 (466.704137)  can1  1F3   [8]  00 80 00 04 02 80 00 00
 (466.705926)  can1  545   [8]  12 00 00 00 00 01 00 00
 (466.709338)  can1  153   [8]  E4 49 00 FF 00 FF FF 80
 (466.710459)  can1  1F0   [8]  09 40 09 00 09 00 09 00
 (466.712267)  can1  1F3   [8]  00 80 00 04 02 80 00 00
 (466.712719)  can1  1F5   [8]  02 83 00 00 80 C1 00 00
 (466.713770)  can1  338   [8]  00 00 00 00 00 00 00 00
 (466.714817)  can1  316   [8]  05 00 00 00 93 1D 00 00
 (466.716489)  can1  545   [8]  12 00 00 00 00 01 00 00
 (466.717527)  can1  153   [8]  E4 49 00 FF 00 FF FF 80
 (466.719510)  can1  1F3   [8]  00 80 00 04 02 80 00 00
 (466.720404)  can1  613   [8]  87 7E 0A DB 2C 00 00 00
 (466.722041)  can1  1F5   [8]  02 83 00 00 80 D1 00 00
 (466.722927)  can1  1F0   [8]  09 00 09 00 09 00 09 00
 (466.724126)  can1  153   [8]  E4 49 00 FF 00 FF FF 80
 (466.725171)  can1  329   [8]  D1 6F D0 01 00 00 00 00
 (466.726808)  can1  545   [8]  12 00 00 00 00 01 00 00
 (466.729196)  can1  1F5   [8]  02 83 00 00 80 E1 00 00
 (466.730090)  can1  153   [8]  E4 49 00 FF 00 FF FF 80
 (466.731133)  can1  1F0   [8]  09 20 09 00 09 00 09 00
 (466.732225)  can1  1F3   [8]  00 80 00 03 02 80 00 00
 (466.734172)  can1  338   [8]  00 00 00 00 00 00 00 00
 (466.734913)  can1  316   [8]  05 00 00 00 93 1D 00 98
 (466.736837)  can1  545   [8]  12 00 00 00 00 01 00 00
 (466.737874)  can1  153   [8]  E4 49 00 FF 00 FF FF 80
 (466.739091)  can1  1F5   [8]  02 83 00 00 80 F1 96 04
 (466.743686)  can1  338   [8]  00 00 00 00 00 00 00 00
 (466.744760)  can1  316   [8]  05 00 00 00 93 1D 00 9A
 (466.746532)  can1  1F3   [8]  00 80 00 03 02 80 00 00
 (466.747577)  can1  545   [8]  12 00 00 00 00 01 00 00
 (466.748618)  can1  1F5   [8]  02 83 00 00 80 01 00 00
 (466.750772)  can1  153   [8]  E4 49 00 FF 00 FF FF 80
 (466.751951)  can1  1F0   [8]  09 00 09 00 09 00 09 00
 (466.753766)  can1  1F3   [8]  00 80 00 03 02 80 00 00
 (466.754662)  can1  338   [8]  00 00 00 00 00 00 00 00
 (466.756314)  can1  545   [8]  12 00 00 00 00 01 00 00
 (466.757222)  can1  1F5   [8]  02 83 00 00 80 11 00 00
 (466.758432)  can1  153   [8]  E4 49 00 FF 00 FF FF 80
 (466.759618)  can1  1F0   [8]  09 20 09 00 09 00 09 00
 (466.761286)  can1  1F3   [8]  00 80 00 03 02 80 00 00
 (466.763667)  can1  338   [8]  00 00 00 00 00 00 00 00
 (466.764704)  can1  316   [8]  05 00 00 00 93 29 00 9E
 (466.766498)  can1  545   [8]  12 00 00 00 00 01 00 00
 (466.767549)  can1  1F5   [8]  02 83 00 00 80 21 00 00
 (466.772337)  can1  153   [8]  E4 49 00 FF 00 FF FF 80
 (466.773374)  can1  1F0   [8]  09 60 09 00 09 00 09 00
 (466.775143)  can1  338   [8]  00 00 00 00 00 00 00 00
 (466.776037)  can1  545   [8]  12 00 00 00 00 01 00 00
 (466.779365)  can1  153   [8]  E4 49 00 FF 00 FF FF 80
 (466.780403)  can1  1F0   [8]  09 00 09 00 09 00 09 00
 (466.782172)  can1  1F3   [8]  00 80 00 02 02 80 00 00
 (466.783793)  can1  338   [8]  00 00 00 00 00 00 00 00
 (466.784991)  can1  316   [8]  05 00 00 00 93 29 00 A2
 (466.786931)  can1  545   [8]  12 00 00 00 00 01 00 00
 (466.787670)  can1  153   [8]  E4 49 00 FF 00 FF FF 80
 (466.788849)  can1  1F3   [8]  00 80 00 02 02 80 00 00
 (466.792372)  can1  1F5   [8]  02 83 00 00 80 51 00 00
 (466.793540)  can1  153   [8]  E4 49 00 FF 00 FF FF 80
 (466.795599)  can1  1F0   [8]  09 40 09 00 09 00 09 00
 (466.796335)  can1  545   [8]  12 00 00 00 00 01 00 00
 (466.800348)  can1  153   [8]  E4 49 00 FF 00 FF FF 80
 (466.801399)  can1  1F0   [8]  09 60 09 00 09 00 09 00
 (466.803227)  can1  1F3   [8]  00 80 00 02 02 80 00 00
 (466.804136)  can1  1F5   [8]  02 83 00 00 80 61 00 00
 (466.806115)  can1  545   [8]  12 00 00 00 00 01 00 00
 (466.807172)  can1  153   [8]  E4 49 00 FF 00 FF FF 80
 (466.808243)  can1  1F0   [8]  09 00 09 00 09 00 09 00
 (466.809758)  can1  1F3   [8]  00 80 00 02 02 80 00 00
 (466.810969)  can1  1F5   [8]  02 83 00 00 80 71 FB 7D
 (466.813669)  can1  338   [8]  00 00 00 00 00 00 00 00
 (466.814712)  can1  316   [8]  05 00 00 00 93 29 00 A6
 (466.816512)  can1  1F3   [8]  00 80 00 02 02 80 00 00
 (466.817419)  can1  545   [8]  12 00 00 00 00 01 00 00
 (466.820481)  can1  1F5   [8]  02 83 00 00 80 81 00 00
 (466.821678)  can1  153   [8]  E4 49 00 FF 00 FF FF 80
 (466.823622)  can1  1F3   [8]  00 80 00 02 02 80 00 00
 (466.824373)  can1  338   [8]  00 00 00 00 00 00 00 00
 (466.826309)  can1  545   [8]  12 00 00 00 00 01 00 00
 (466.828358)  can1  153   [8]  E4 49 00 FF 00 FF FF 80
 (466.829391)  can1  1F0   [8]  09 60 09 00 09 00 09 00
 (466.831148)  can1  1F5   [8]  02 83 00 00 80 91 00 00
 (466.833658)  can1  338   [8]  00 00 00 00 00 00 00 00
 (466.834716)  can1  316   [8]  05 00 00 00 93 29 00 A8
 (466.836520)  can1  545   [8]  12 00 00 00 00 01 00 00
 (466.836973)  can1  1F3   [8]  00 80 00 02 02 80 00 00
 (466.838807)  can1  1F5   [8]  02 83 00 00 80 A1 00 00
 (466.842391)  can1  153   [8]  E4 49 00 FF 00 FF FF 80
 (466.843440)  can1  1F0   [8]  09 20 09 00 09 00 09 00
 (466.845232)  can1  338   [8]  00 00 00 00 00 00 00 00
 (466.845682)  can1  545   [8]  12 00 00 00 00 01 00 00
 (466.846729)  can1  1F5   [8]  02 83 00 00 80 B1 00 00
 (466.849394)  can1  153   [8]  E4 49 00 FF 00 FF FF 80
 (466.850433)  can1  1F0   [8]  09 40 09 00 09 00 09 00
 (466.852209)  can1  1F3   [8]  00 80 00 02 02 80 00 00
 (466.853242)  can1  338   [8]  00 00 00 00 00 00 00 00
 (466.854137)  can1  316   [8]  05 00 00 00 93 29 00 AA
 (466.855318)  can1  545   [8]  12 00 00 00 00 01 00 00
 (466.856203)  can1  153   [8]  E4 49 00 FF 00 FF FF 80
 (466.858131)  can1  1F0   [8]  09 60 09 00 09 00 09 00
 (466.858579)  can1  1F5   [8]  02 83 00 00 80 C1 00 00
 (466.863417)  can1  153   [8]  E4 49 00 FF 00 FF FF 80
 (466.864462)  can1  1F0   [8]  09 00 09 00 09 00 09 00
 (466.866289)  can1  338   [8]  00 00 00 00 00 00 00 00
 (466.866745)  can1  1F5   [8]  02 83 00 00 80 D1 00 00
 (466.870405)  can1  153   [8]  E4 49 00 FF 00 FF FF 80
 (466.871466)  can1  1F0   [8]  09 20 09 00 09 00 09 00
 (466.873259)  can1  1F3   [8]  00 80 00 01 02 80 00 00
 (466.874303)  can1  338   [8]  00 00 00 00 00 00 00 00
 (466.875351)  can1  545   [8]  12 00 00 00 00 01 00 00
 (466.876403)  can1  1F5   [8]  02 83 00 00 80 E1 00 00
 (466.877613)  can1  153   [8]  E4 49 00 FF 00 FF FF 80
 (466.878659)  can1  1F0   [8]  09 40 09 00 09 00 09 00
 (466.880338)  can1  1F3   [8]  00 80 00 01 02 80 00 00
 (466.883569)  can1  1F5   [8]  02 83 00 00 80 F1 96 04
 (466.884617)  can1  316   [8]  05 00 00 00 93 29 00 AC
 (466.886417)  can1  1F0   [8]  09 60 09 00 09 00 09 00
 (466.886869)  can1  545   [8]  12 00 00 00 00 01 00 00
 (466.891473)  can1  153   [8]  E4 49 00 FF 00 FF FF 80
 (466.892533)  can1  1F0   [8]  09 00 09 00 09 00 09 00
 (466.894332)  can1  1F3   [8]  00 80 00 01 02 80 00 00
 (466.894785)  can1  316   [8]  05 00 00 00 93 29 00 AD
 (466.896483)  can1  545   [8]  12 00 00 00 00 01 00 00
 (466.898132)  can1  153   [8]  E4 49 00 FF 00 FF FF 80
 (466.899201)  can1  1F0   [8]  09 20 09 00 09 00 09 00
 (466.901159)  can1  1F3   [8]  00 80 00 01 02 80 00 00
 (466.902371)  can1  1F5   [8]  02 83 00 00 80 11 00 00
 (466.903445)  can1  338   [8]  00 00 00 00 00 00 00 00
 (466.904489)  can1  316   [8]  05 00 00 00 93 29 00 AD
 (466.905684)  can1  545   [8]  12 00 00 00 00 01 00 00
 (466.906434)  can1  1F0   [8]  09 40 09 00 09 00 09 00
 (466.908393)  can1  1F3   [8]  00 80 00 01 02 80 00 00
 (466.911619)  can1  1F5   [8]  02 83 00 00 80 21 00 00
 (466.912662)  can1  610   [8]  remote request
 (466.913561)  can1  1F0   [8]  09 60 09 00 09 00 09 00
 (466.914012)  can1  316   [8]  05 00 00 00 93 29 00 AE
 (466.915962)  can1  545   [8]  12 00 00 00 00 01 00 00
 (466.918416)  can1  613   [8]  87 7E 0A DB 2C 00 00 00
 (466.919328)  can1  615   [8]  00 00 00 11 03 00 00 00
 (466.920513)  can1  1F0   [8]  09 00 09 00 09 00 09 00
 (466.921270)  can1  1F5   [8]  02 83 00 00 80 31 00 00
 (466.923221)  can1  338   [8]  00 00 00 00 00 00 00 00
 (466.924258)  can1  316   [8]  05 00 00 00 93 29 00 AF
 (466.925456)  can1  545   [8]  12 00 00 00 00 01 00 00
 (466.926354)  can1  153   [8]  E4 49 00 FF 00 FF FF 80
 (466.928146)  can1  1F0   [8]  09 20 09 00 09 00 09 00
 (466.928899)  can1  1F3   [8]  00 80 00 01 02 80 00 00
 (466.930101)  can1  1F5   [8]  02 83 00 00 80 41 00 00
 (466.933447)  can1  153   [8]  E4 49 00 FF 00 FF FF 80
 (466.934483)  can1  1F0   [8]  09 40 09 00 09 00 09 00
 (466.936253)  can1  338   [8]  00 00 00 00 00 00 00 00
 (466.937147)  can1  545   [8]  12 00 00 00 00 01 00 00
 (466.938328)  can1  1F5   [8]  02 83 00 00 80 51 00 00
 (466.940460)  can1  153   [8]  E4 49 00 FF 00 FF FF 80
 (466.941521)  can1  1F0   [8]  09 60 09 00 09 00 09 00
 (466.943320)  can1  1F3   [8]  00 80 00 01 02 80 00 00
 (466.944361)  can1  338   [8]  00 00 00 00 00 00 00 00
 (466.946133)  can1  545   [8]  12 00 00 00 00 01 00 00
 (466.947176)  can1  1F0   [8]  09 00 09 00 09 00 09 00
 (466.948361)  can1  153   [8]  E4 49 00 FF 00 FF FF 80
 (466.949413)  can1  1F5   [8]  02 83 00 00 80 61 00 00
 (466.953659)  can1  338   [8]  00 00 00 00 00 00 00 00
 (466.954696)  can1  316   [8]  05 00 00 00 93 29 00 B0
 (466.956467)  can1  1F0   [8]  09 20 09 00 09 00 09 00
 (466.957515)  can1  1F3   [8]  00 80 00 00 02 80 00 00
 (466.959157)  can1  1F5   [8]  02 83 00 00 80 71 FB 7D
 (466.961450)  can1  153   [8]  E4 49 00 FF 00 FF FF 80
 (466.962489)  can1  1F0   [8]  09 40 09 00 09 00 09 00
 (466.964267)  can1  1F3   [8]  00 80 00 00 02 80 00 00
 (466.965317)  can1  316   [8]  05 00 00 00 93 29 00 B0
 (466.966960)  can1  545   [8]  12 00 00 00 00 01 00 00
 (466.968008)  can1  1F5   [8]  02 83 00 00 80 81 00 00
 (466.969210)  can1  153   [8]  E4 49 00 FF 00 FF FF 80
 (466.970264)  can1  1F3   [8]  00 80 00 00 02 80 00 00
 (466.973652)  can1  338   [8]  00 00 00 00 00 00 00 00
 (466.974687)  can1  316   [8]  05 00 00 00 93 29 00 B1
 (466.976456)  can1  1F5   [8]  02 83 00 00 80 91 00 00
 (466.977352)  can1  1F3   [8]  00 80 00 00 02 80 00 00
 (466.982485)  can1  153   [8]  E4 49 00 FF 00 FF FF 80
 (466.983523)  can1  1F0   [8]  09 20 09 00 09 00 09 00
 (466.985326)  can1  316   [8]  05 00 00 00 93 29 00 B1
 (466.986376)  can1  1F5   [8]  02 83 00 00 80 A1 00 00
 (466.989498)  can1  153   [8]  E4 49 00 FF 00 FF FF 80
 (466.990527)  can1  1F0   [8]  09 40 09 00 09 00 09 00
 (466.992296)  can1  1F3   [8]  00 80 00 00 02 80 00 00
 (466.993320)  can1  1F5   [8]  02 83 00 00 80 B1 00 00
 (466.994487)  can1  338   [8]  00 00 00 00 00 00 00 00
 (466.995523)  can1  545   [8]  12 00 00 00 00 01 00 00
 (466.997151)  can1  153   [8]  E4 49 00 FF 00 FF FF 80
 (466.998039)  can1  1F0   [8]  09 60 09 00 09 00 09 00
 (466.998919)  can1  1F3   [8]  00 80 00 00 02 80 00 00
 (467.002647)  can1  1F5   [8]  02 83 00 00 80 C1 00 00
 (467.003841)  can1  153   [8]  E4 49 00 FF 00 FF FF 80
 (467.005770)  can1  1F3   [8]  00 80 00 00 02 80 00 00
 (467.006517)  can1  545   [8]  12 00 00 00 00 01 00 00
 (467.010532)  can1  153   [8]  E4 49 00 FF 00 FF FF 80
 (467.011575)  can1  1F0   [8]  09 20 09 00 09 00 09 00
 (467.013346)  can1  1F5   [8]  02 83 00 00 80 D1 00 00
 (467.014246)  can1  338   [8]  00 00 00 00 00 00 00 00
 (467.016209)  can1  545   [8]  12 00 00 00 00 01 00 00
 (467.017096)  can1  1F0   [8]  09 40 09 00 09 00 09 00
 (467.018275)  can1  153   [8]  E4 49 00 FF 00 FF FF 80
 (467.019325)  can1  1F3   [8]  00 80 00 00 02 80 00 00
 (467.020964)  can1  1F5   [8]  02 83 00 00 80 E1 00 00
 (467.023710)  can1  338   [8]  00 00 00 00 00 00 00 00
 (467.024745)  can1  316   [8]  05 00 00 00 93 29 00 B2
 (467.026519)  can1  1F0   [8]  09 60 09 00 09 00 09 00
 (467.027416)  can1  1F3   [8]  00 80 00 00 02 80 00 00
 (467.029218)  can1  1F5   [8]  02 83 00 00 80 F1 96 04
 (467.031538)  can1  153   [8]  E4 49 00 FF 00 FF FF 80
 (467.032575)  can1  1F0   [8]  09 00 09 00 09 00 09 00
 (467.034346)  can1  1F3   [8]  00 80 00 00 02 80 00 00
 (467.035395)  can1  316   [8]  05 00 00 00 93 29 00 B2
 (467.037036)  can1  545   [8]  12 00 00 00 00 01 00 00
 (467.038659)  can1  153   [8]  E4 49 00 FF 00 FF FF 80
 (467.039858)  can1  1F0   [8]  09 20 09 00 09 00 09 00
 (467.041637)  can1  1F5   [8]  02 83 00 00 80 01 00 00
 (467.043664)  can1  338   [8]  00 00 00 00 00 00 00 00
 (467.044757)  can1  316   [8]  05 00 00 00 93 29 00 B2
 (467.046533)  can1  545   [8]  12 00 00 00 00 01 00 00
 (467.047429)  can1  1F3   [8]  00 80 00 00 02 80 00 00
 (467.048613)  can1  1F5   [8]  02 83 00 00 80 11 00 00
 (467.052501)  can1  153   [8]  E4 49 00 FF 00 FF FF 80
 (467.053536)  can1  1F0   [8]  09 60 09 00 09 00 09 00
 (467.055303)  can1  316   [8]  05 00 00 00 93 29 00 B3
 (467.056197)  can1  545   [8]  12 00 00 00 00 01 00 00
 (467.056949)  can1  1F5   [8]  02 83 00 00 80 21 00 00
 (467.059541)  can1  153   [8]  E4 49 00 FF 00 FF FF 80
 (467.060569)  can1  1F0   [8]  09 00 09 00 09 00 09 00
 (467.062340)  can1  1F3   [8]  00 80 00 00 02 80 00 00
 (467.063228)  can1  316   [8]  05 00 00 00 93 29 00 B3
 (467.064417)  can1  338   [8]  00 00 00 00 00 00 00 00
 (467.065465)  can1  545   [8]  12 00 00 00 00 01 00 00
 (467.067110)  can1  1F5   [8]  02 83 00 00 80 31 00 00
 (467.068158)  can1  1F0   [8]  09 20 09 00 09 00 09 00
 (467.069341)  can1  1F3   [8]  00 80 00 00 02 80 00 00
 (467.073525)  can1  153   [8]  E4 49 00 FF 00 FF FF 80
 (467.074561)  can1  1F0   [8]  09 40 09 00 09 00 09 00
 (467.076333)  can1  338   [8]  00 00 00 00 00 00 00 00
 (467.077381)  can1  1F5   [8]  02 83 00 00 80 41 00 00
 (467.080536)  can1  153   [8]  E4 49 00 FF 00 FF FF 80
 (467.081630)  can1  1F0   [8]  09 60 09 00 09 00 09 00
 (467.083418)  can1  1F3   [8]  00 80 00 00 02 80 00 00
 (467.084455)  can1  338   [8]  00 00 00 00 00 00 00 00
 (467.086226)  can1  545   [8]  12 00 00 00 00 01 00 00
 (467.087270)  can1  1F0   [8]  09 00 09 00 09 00 09 00
 (467.088460)  can1  153   [8]  E4 49 00 FF 00 FF FF 80
 (467.089515)  can1  1F3   [8]  00 80 00 00 02 80 00 00
 (467.093625)  can1  338   [8]  00 00 00 00 00 00 00 00
 (467.094661)  can1  1F5   [8]  02 83 00 00 80 61 00 00
 (467.096427)  can1  1F0   [8]  09 20 09 00 09 00 09 00
 (467.097475)  can1  545   [8]  12 00 00 00 00 01 00 00
 (467.101554)  can1  153   [8]  E4 49 00 FF 00 FF FF 80
 (467.102593)  can1  1F0   [8]  09 40 09 00 09 00 09 00
 (467.104368)  can1  1F5   [8]  02 83 00 00 80 71 FB 7D
 (467.105413)  can1  316   [8]  05 00 00 00 93 29 00 B3
 (467.107053)  can1  545   [8]  12 00 00 00 00 01 00 00
 (467.108685)  can1  153   [8]  E4 49 00 FF 00 FF FF 80
 (467.109976)  can1  1F0   [8]  09 60 09 00 09 00 09 00
 (467.111804)  can1  1F3   [8]  00 80 00 FF 01 80 00 00
 (467.112858)  can1  1F5   [8]  02 83 00 00 80 81 00 00
 (467.114059)  can1  338   [8]  00 00 00 00 00 00 00 00
 (467.114801)  can1  329   [8]  11 6F D0 01 00 00 00 00
 (467.116937)  can1  545   [8]  12 00 00 00 00 01 00 00
 (467.117692)  can1  1F3   [8]  00 80 00 FF 01 80 00 00
 (467.118907)  can1  613   [8]  87 7E 0A DB 2C 00 00 00
 (467.119969)  can1  615   [8]  00 00 00 11 03 00 00 00
 (467.120874)  can1  1F5   [8]  02 83 00 00 80 91 00 00
 (467.122438)  can1  1F0   [8]  09 20 09 00 09 00 09 00
 (467.124555)  can1  153   [8]  E4 49 00 FF 00 FF FF 80
 (467.125309)  can1  338   [8]  00 00 00 00 00 00 00 00
 (467.126559)  can1  545   [8]  12 00 00 00 00 01 00 00
 (467.129601)  can1  153   [8]  E4 49 00 FF 00 FF FF 80
 (467.130644)  can1  1F0   [8]  09 40 09 00 09 00 09 00
 (467.132439)  can1  1F5   [8]  02 83 00 00 80 A1 00 00
 (467.133650)  can1  316   [8]  05 00 00 00 93 29 00 B4
 (467.135752)  can1  338   [8]  00 00 00 00 00 00 00 00
 (467.136799)  can1  545   [8]  12 00 00 00 00 01 00 00
 (467.138005)  can1  1F3   [8]  00 80 00 FF 01 80 00 00
 (467.138817)  can1  1F5   [8]  02 83 00 00 80 B1 00 00
 (467.143600)  can1  153   [8]  E4 49 00 FF 00 FF FF 80
 (467.144653)  can1  1F0   [8]  09 00 09 00 09 00 09 00
 (467.146434)  can1  338   [8]  00 00 00 00 00 00 00 00
 (467.147485)  can1  545   [8]  12 00 00 00 00 01 00 00
 (467.148687)  can1  1F5   [8]  02 83 00 00 80 C1 00 00
 (467.150596)  can1  153   [8]  E4 49 00 FF 00 FF FF 80
 (467.151646)  can1  1F0   [8]  09 20 09 00 09 00 09 00
 (467.153427)  can1  1F3   [8]  00 80 00 FF 01 80 00 00
 (467.154471)  can1  338   [8]  00 00 00 00 00 00 00 00
 (467.156261)  can1  545   [8]  12 00 00 00 00 01 00 00
 (467.157309)  can1  1F5   [8]  02 83 00 00 80 D1 00 00
 (467.158513)  can1  153   [8]  E4 49 00 FF 00 FF FF 80
 (467.159571)  can1  1F3   [8]  00 80 00 FF 01 80 00 00
 (467.163057)  can1  338   [8]  00 00 00 00 00 00 00 00
 (467.164237)  can1  316   [8]  05 00 00 00 93 29 00 B4
 (467.166035)  can1  545   [8]  12 00 00 00 00 01 00 00
 (467.167380)  can1  1F3   [8]  00 80 00 FF 01 80 00 00
 (467.169157)  can1  1F5   [8]  02 83 00 00 80 E1 00 00
 (467.171630)  can1  153   [8]  E4 49 00 FF 00 FF FF 80
 (467.172686)  can1  1F0   [8]  09 00 09 00 09 00 09 00
 (467.174478)  can1  1F3   [8]  00 80 00 FF 01 80 00 00
 (467.175540)  can1  316   [8]  05 00 00 00 93 29 00 B4
 (467.177366)  can1  1F5   [8]  02 83 00 00 80 F1 96 04
 (467.178562)  can1  1F0   [8]  09 20 09 00 09 00 09 00
 (467.180391)  can1  153   [8]  E4 49 00 FF 00 FF FF 80
 (467.181437)  can1  1F3   [8]  00 80 00 FF 01 80 00 00
 (467.183663)  can1  338   [8]  00 00 00 00 00 00 00 00
 (467.184760)  can1  316   [8]  05 00 00 00 93 29 00 B4
 (467.186551)  can1  1F5   [8]  02 83 00 00 80 01 00 00
 (467.187618)  can1  1F3   [8]  00 80 00 FF 01 80 00 00
 (467.192619)  can1  153   [8]  E4 49 00 FF 00 FF FF 80
 (467.193672)  can1  1F0   [8]  09 60 09 00 09 00 09 00
 (467.195472)  can1  316   [8]  05 00 00 00 93 29 00 B4
 (467.196534)  can1  545   [8]  12 00 00 00 00 01 00 00
 (467.199632)  can1  153   [8]  E4 49 00 FF 00 FF FF 80
 (467.200682)  can1  1F0   [8]  09 00 09 00 09 00 09 00
 (467.202475)  can1  1F3   [8]  00 80 00 FF 01 80 00 00
 (467.203689)  can1  1F5   [8]  02 83 00 00 80 21 00 00
 (467.205808)  can1  316   [8]  05 00 00 00 93 29 00 B4
 (467.206563)  can1  545   [8]  12 00 00 00 00 01 00 00
 (467.208065)  can1  1F3   [8]  00 80 00 FF 01 80 00 00
 (467.211364)  can1  1F5   [8]  02 83 00 00 80 31 00 00
 (467.213629)  can1  153   [8]  E4 49 00 FF 00 FF FF 80
 (467.214679)  can1  1F0   [8]  09 40 09 00 09 00 09 00
 (467.216469)  can1  338   [8]  00 00 00 00 00 00 00 00
 (467.217524)  can1  545   [8]  12 00 00 00 00 01 00 00
 (467.220634)  can1  153   [8]  E4 49 00 FF 00 FF FF 80
 (467.221682)  can1  1F0   [8]  09 60 09 00 09 00 09 00
 (467.223474)  can1  1F5   [8]  02 83 00 00 80 41 00 00
 (467.224531)  can1  338   [8]  00 00 00 00 00 00 00 00
 (467.226663)  can1  545   [8]  12 00 00 00 00 01 00 00
 (467.227856)  can1  153   [8]  E4 49 00 FF 00 FF FF 80
 (467.229999)  can1  1F0   [8]  09 00 09 00 09 00 09 00
 (467.231052)  can1  1F3   [8]  00 80 00 FF 01 80 00 00
 (467.231954)  can1  1F5   [8]  02 83 00 00 80 51 00 00
 (467.233651)  can1  338   [8]  00 00 00 00 00 00 00 00
 (467.234703)  can1  316   [8]  05 00 00 00 93 29 00 B4
 (467.236486)  can1  1F0   [8]  09 20 09 00 09 00 09 00
 (467.237539)  can1  1F3   [8]  00 80 00 FF 01 80 00 00
 (467.239690)  can1  1F5   [8]  02 83 00 00 80 61 00 00
 (467.241635)  can1  153   [8]  E4 49 00 FF 00 FF FF 80
 (467.242776)  can1  1F0   [8]  09 40 09 00 09 00 09 00
 (467.244575)  can1  1F3   [8]  00 80 00 FF 01 80 00 00
 (467.245629)  can1  329   [8]  80 6F D0 01 00 00 00 00
 (467.246532)  can1  545   [8]  12 00 00 00 00 01 00 00
 (467.248534)  can1  1F5   [8]  02 83 00 00 80 71 FB 7D
 (467.250047)  can1  153   [8]  E4 49 00 FF 00 FF FF 80
 (467.251394)  can1  1F3   [8]  00 80 00 FF 01 80 00 00
 (467.253724)  can1  338   [8]  00 00 00 00 00 00 00 00
 (467.254775)  can1  316   [8]  05 00 00 00 93 29 00 B4
 (467.256567)  can1  545   [8]  12 00 00 00 00 01 00 00
 (467.257622)  can1  1F3   [8]  00 80 00 FF 01 80 00 00
 (467.258824)  can1  1F5   [8]  02 83 00 00 80 81 00 00
 (467.262657)  can1  153   [8]  E4 49 00 FF 00 FF FF 80
 (467.263708)  can1  1F0   [8]  09 20 09 00 09 00 09 00
 (467.265498)  can1  316   [8]  05 00 00 00 93 29 00 B4
 (467.266552)  can1  545   [8]  12 00 00 00 00 01 00 00
 (467.268352)  can1  1F5   [8]  02 83 00 00 80 91 00 00
 (467.269249)  can1  1F0   [8]  09 40 09 00 09 00 09 00
 (467.270470)  can1  153   [8]  E4 49 00 FF 00 FF FF 80
 (467.271525)  can1  1F3   [8]  00 80 00 FF 01 80 00 00
 (467.273342)  can1  338   [8]  00 00 00 00 00 00 00 00
 (467.274461)  can1  316   [8]  05 00 00 00 93 29 00 B4
 (467.275969)  can1  545   [8]  12 00 00 00 00 01 00 00
 (467.276715)  can1  1F5   [8]  02 83 00 00 80 A1 00 00
 (467.278890)  can1  1F3   [8]  00 80 00 FF 01 80 00 00
 (467.283649)  can1  338   [8]  00 00 00 00 00 00 00 00
 (467.284722)  can1  153   [8]  E4 49 00 FF 00 FF FF 80
 (467.286544)  can1  316   [8]  05 00 00 00 93 29 00 B4
 (467.287598)  can1  545   [8]  12 00 00 00 00 01 00 00
 (467.290678)  can1  153   [8]  E4 49 00 FF 00 FF FF 80
 (467.291728)  can1  1F0   [8]  09 20 09 00 09 00 09 00
 (467.293516)  can1  1F3   [8]  00 80 00 FF 01 80 00 00
 (467.294567)  can1  338   [8]  00 00 00 00 00 00 00 00
 (467.296356)  can1  545   [8]  12 00 00 00 00 01 00 00
 (467.297562)  can1  1F0   [8]  09 40 09 00 09 00 09 00
 (467.299698)  can1  153   [8]  E4 49 00 FF 00 FF FF 80
 (467.300445)  can1  1F3   [8]  00 80 00 FF 01 80 00 00
 (467.302357)  can1  1F5   [8]  02 83 00 00 80 D1 00 00
 (467.303270)  can1  316   [8]  05 00 00 00 93 29 00 B4
 (467.304532)  can1  338   [8]  00 00 00 00 00 00 00 00
 (467.305590)  can1  153   [8]  E4 49 00 FF 00 FF FF 80
 (467.307425)  can1  1F3   [8]  00 80 00 FF 01 80 00 00
 (467.311694)  can1  153   [8]  E4 49 00 FF 00 FF FF 80
 (467.312746)  can1  1F0   [8]  09 00 09 00 09 00 09 00
 (467.314539)  can1  1F5   [8]  02 83 00 00 80 E1 00 00
 (467.315595)  can1  329   [8]  D1 6F D0 01 00 00 00 00
 (467.316495)  can1  545   [8]  12 00 00 00 00 01 00 00
 (467.318603)  can1  153   [8]  E4 49 00 FF 00 FF FF 80
 (467.319652)  can1  1F0   [8]  09 20 09 00 09 00 09 00
 (467.321418)  can1  615   [8]  00 00 00 11 03 00 00 00
 (467.322461)  can1  1F5   [8]  02 83 00 00 80 F1 96 04
 (467.323659)  can1  338   [8]  00 00 00 00 00 00 00 00
 (467.324700)  can1  316   [8]  05 00 00 00 93 29 00 B4
 (467.326779)  can1  545   [8]  12 00 00 00 00 01 00 00
 (467.327519)  can1  1F0   [8]  09 40 09 00 09 00 09 00
 (467.328718)  can1  1F3   [8]  00 80 00 FF 01 80 00 00
 (467.330801)  can1  1F5   [8]  02 83 00 00 80 01 00 00
 (467.332700)  can1  153   [8]  E4 49 00 FF 00 FF FF 80
 (467.333753)  can1  1F0   [8]  09 60 09 00 09 00 09 00
 (467.335545)  can1  329   [8]  D1 6F D0 01 00 00 00 00
 (467.336595)  can1  545   [8]  12 00 00 00 00 01 00 00
 (467.338860)  can1  1F5   [8]  02 83 00 00 80 11 00 00
 (467.340097)  can1  153   [8]  E4 49 00 FF 00 FF FF 80
 (467.342280)  can1  1F3   [8]  00 80 00 FF 01 80 00 08
 (467.343969)  can1  338   [8]  00 00 00 00 00 00 00 00
 (467.344431)  can1  316   [8]  05 00 00 00 93 29 00 B5
 (467.345661)  can1  545   [8]  12 00 00 00 00 01 00 00
 (467.346563)  can1  153   [8]  E4 49 00 FF 00 FF FF 80
 (467.348673)  can1  1F0   [8]  09 20 09 00 09 00 09 00
 (467.350032)  can1  1F3   [8]  00 80 00 FF 01 80 00 08
 (467.351388)  can1  1F5   [8]  02 83 00 00 80 21 00 00
 (467.353650)  can1  338   [8]  00 00 00 00 00 00 00 00
 (467.354702)  can1  153   [8]  E4 49 00 FF 00 FF FF 80
 (467.356486)  can1  329   [8]  11 6F D0 01 00 00 00 00
 (467.357542)  can1  545   [8]  12 00 00 00 00 01 00 00
 (467.359350)  can1  1F5   [8]  02 83 00 00 80 31 00 00
 (467.360828)  can1  153   [8]  E4 49 00 FF 00 FF FF 80
 (467.361871)  can1  1F0   [8]  09 60 09 00 09 00 09 00
 (467.362748)  can1  1F3   [8]  00 80 00 FF 01 80 00 08
 (467.363929)  can1  338   [8]  00 00 00 00 00 00 00 00
 (467.365575)  can1  329   [8]  11 6F D0 01 00 00 00 00
 (467.366611)  can1  545   [8]  12 00 00 00 00 01 00 00
 (467.367803)  can1  1F5   [8]  02 83 00 00 80 41 00 00
 (467.368846)  can1  1F0   [8]  09 00 09 00 09 00 09 00
 (467.370695)  can1  1F3   [8]  00 80 00 FF 01 80 00 08
 (467.373632)  can1  338   [8]  00 00 00 00 00 00 00 00
 (467.374674)  can1  316   [8]  05 00 00 00 93 29 00 B5
 (467.376453)  can1  1F0   [8]  09 20 09 00 09 00 09 00
 (467.377501)  can1  1F5   [8]  02 83 00 00 80 51 00 00
 (467.381712)  can1  153   [8]  E4 49 00 FF 00 FF FF 80
 (467.382751)  can1  1F0   [8]  09 40 09 00 09 00 09 00
 (467.384531)  can1  1F3   [8]  00 80 00 FF 01 80 00 08
 (467.385583)  can1  329   [8]  11 6F D0 01 00 00 00 00
 (467.386481)  can1  1F5   [8]  02 83 00 00 80 61 00 00
 (467.389660)  can1  153   [8]  E4 49 00 FF 00 FF FF 80
 (467.390709)  can1  1F0   [8]  09 60 09 00 09 00 09 00
 (467.391913)  can1  1F3   [8]  00 80 00 FF 01 80 00 08
 (467.393562)  can1  1F5   [8]  02 83 00 00 80 71 FB 7D
 (467.394611)  can1  316   [8]  05 00 00 00 93 29 00 B5
 (467.396395)  can1  545   [8]  12 00 00 00 00 01 00 00
 (467.397444)  can1  1F0   [8]  09 00 09 00 09 00 09 00
 (467.398341)  can1  1F3   [8]  00 80 00 FF 01 80 00 08
 (467.402722)  can1  153   [8]  E4 49 00 FF 00 FF FF 80
 (467.403769)  can1  1F0   [8]  09 20 09 00 09 00 09 00
 (467.405727)  can1  1F5   [8]  02 83 00 00 80 81 00 00
 (467.406781)  can1  545   [8]  12 00 00 00 00 01 00 00
 (467.409758)  can1  153   [8]  E4 49 00 FF 00 FF FF 80
 (467.410814)  can1  1F0   [8]  09 40 09 00 09 00 09 00
 (467.412605)  can1  1F3   [8]  00 80 00 FF 01 80 00 08
 (467.413664)  can1  1F5   [8]  02 83 00 00 80 91 00 00
 (467.414871)  can1  316   [8]  05 00 00 00 93 29 00 B5
 (467.415929)  can1  545   [8]  12 00 00 00 00 01 00 00
 (467.418040)  can1  153   [8]  E4 49 00 FF 00 FF FF 80
 (467.418795)  can1  1F3   [8]  00 80 00 FF 01 80 00 08
 (467.421867)  can1  1F5   [8]  02 83 00 00 80 A1 00 00
 (467.423668)  can1  338   [8]  00 00 00 00 00 00 00 00
 (467.424719)  can1  153   [8]  E4 49 00 FF 00 FF FF 80
 (467.426512)  can1  545   [8]  12 00 00 00 00 01 00 00
 (467.429959)  can1  1F5   [8]  02 83 00 00 80 B1 00 00
 (467.431146)  can1  153   [8]  E4 49 00 FF 00 FF FF 80
 (467.432919)  can1  1F3   [8]  00 80 00 FF 01 80 00 08
 (467.434122)  can1  338   [8]  00 00 00 00 00 00 00 00
 (467.436227)  can1  329   [8]  40 6F D0 01 00 00 00 00
 (467.436822)  can1  545   [8]  12 00 00 00 00 01 00 00
 (467.438004)  can1  153   [8]  E4 49 00 FF 00 FF FF 80
 (467.438902)  can1  1F3   [8]  00 80 00 FF 01 80 00 08
 (467.440896)  can1  1F5   [8]  02 83 00 00 80 C1 00 00
 (467.443629)  can1  338   [8]  00 00 00 00 00 00 00 00
 (467.444669)  can1  316   [8]  05 00 00 00 93 29 00 B5
 (467.446444)  can1  1F0   [8]  09 60 09 00 09 00 09 00
 (467.447342)  can1  1F3   [8]  00 80 00 FF 01 80 00 08
 (467.448538)  can1  1F5   [8]  02 83 00 00 80 D1 00 00
 (467.451762)  can1  153   [8]  E4 49 00 FF 00 FF FF 80
 (467.452790)  can1  1F0   [8]  09 00 09 00 09 00 09 00
 (467.454541)  can1  1F3   [8]  00 80 00 FF 01 80 00 08
 (467.455431)  can1  329   [8]  40 6F D0 01 00 00 00 00
 (467.456306)  can1  545   [8]  12 00 00 00 00 01 00 00
 (467.458205)  can1  1F5   [8]  02 83 00 00 80 E1 00 00
 (467.459382)  can1  153   [8]  E4 49 00 FF 00 FF FF 80
 (467.461016)  can1  1F3   [8]  00 80 00 FF 01 80 00 08
 (467.463620)  can1  338   [8]  00 00 00 00 00 00 00 00
 (467.464658)  can1  316   [8]  05 00 00 00 93 29 00 B5
 (467.466436)  can1  545   [8]  12 00 00 00 00 01 00 00
 (467.467335)  can1  1F0   [8]  09 40 09 00 09 00 09 00
 (467.469110)  can1  1F5   [8]  02 83 00 00 80 F1 96 04
 (467.472750)  can1  153   [8]  E4 49 00 FF 00 FF FF 80
 (467.473775)  can1  1F0   [8]  09 60 09 00 09 00 09 00
 (467.475528)  can1  329   [8]  40 6F D0 01 00 00 00 00
 (467.476417)  can1  545   [8]  12 00 00 00 00 01 00 00
 (467.477593)  can1  1F5   [8]  02 83 00 00 80 01 00 00
 (467.479793)  can1  153   [8]  E4 49 00 FF 00 FF FF 80
 (467.480834)  can1  1F0   [8]  09 00 09 00 09 00 09 00
 (467.482610)  can1  1F3   [8]  00 80 00 FF 01 80 00 08
 (467.483495)  can1  338   [8]  00 00 00 00 00 00 00 00
 (467.485291)  can1  316   [8]  05 00 00 00 93 29 00 B5
 (467.486329)  can1  1F5   [8]  02 83 00 00 80 11 00 00
 (467.487522)  can1  153   [8]  E4 49 00 FF 00 FF FF 80
 (467.488263)  can1  1F3   [8]  00 80 00 FF 01 80 00 08
 (467.493623)  can1  338   [8]  00 00 00 00 00 00 00 00
 (467.494663)  can1  153   [8]  E4 49 00 FF 00 FF FF 80
 (467.496438)  can1  329   [8]  84 6F D0 01 00 00 00 00
 (467.497338)  can1  545   [8]  12 00 00 00 00 01 00 00
 (467.500779)  can1  153   [8]  E4 49 00 FF 00 FF FF 80
 (467.501816)  can1  1F0   [8]  09 60 09 00 09 00 09 00
 (467.503607)  can1  1F3   [8]  00 80 00 FF 01 80 00 08
 (467.504509)  can1  1F5   [8]  02 83 00 00 80 31 00 00
 (467.506316)  can1  545   [8]  12 00 00 00 00 01 00 00
 (467.507363)  can1  153   [8]  E4 49 00 FF 00 FF FF 80
 (467.508270)  can1  1F0   [8]  09 00 09 00 09 00 09 00
 (467.509500)  can1  1F3   [8]  00 80 00 FF 01 80 00 08
 (467.512415)  can1  1F5   [8]  02 83 00 00 80 41 00 00
 (467.513613)  can1  316   [8]  05 00 00 00 93 29 00 B5
 (467.515561)  can1  338   [8]  00 00 00 00 00 00 00 00
 (467.516468)  can1  1F0   [8]  09 20 09 00 09 00 09 00
 (467.517373)  can1  1F3   [8]  00 80 00 FF 01 80 00 08
 (467.518712)  can1  613   [8]  87 7E 0A DB 2C 00 00 00
 (467.519762)  can1  615   [8]  00 00 00 11 03 00 00 00
 (467.521098)  can1  1F5   [8]  02 83 00 00 80 51 00 00
 (467.522278)  can1  153   [8]  E4 49 00 FF 00 FF FF 80
 (467.524032)  can1  1F3   [8]  00 80 00 FF 01 80 00 08
 (467.524930)  can1  338   [8]  00 00 00 00 00 00 00 00
 (467.526700)  can1  545   [8]  12 00 00 00 00 01 00 00
 (467.528184)  can1  153   [8]  E4 49 00 FF 00 FF FF 80
 (467.529362)  can1  1F0   [8]  09 60 09 00 09 00 09 00
 (467.531056)  can1  1F3   [8]  00 80 00 FF 01 80 00 08
 (467.532114)  can1  1F5   [8]  02 83 00 00 80 61 00 00
 (467.533487)  can1  338   [8]  00 00 00 00 00 00 00 00
 (467.534555)  can1  316   [8]  05 00 00 00 93 29 00 B5
 (467.536387)  can1  545   [8]  12 00 00 00 00 01 00 00
 (467.536839)  can1  153   [8]  E4 49 00 FF 00 FF FF 80
 (467.539121)  can1  1F3   [8]  00 80 00 FF 01 80 00 08
 (467.539583)  can1  1F5   [8]  02 83 00 00 80 71 FB 7D
 (467.542801)  can1  153   [8]  E4 49 00 FF 00 FF FF 80
 (467.543853)  can1  1F0   [8]  09 20 09 00 09 00 09 00
 (467.545622)  can1  329   [8]  84 6F D0 01 00 00 00 00
 (467.546682)  can1  545   [8]  12 00 00 00 00 01 00 00
 (467.549087)  can1  1F5   [8]  02 83 00 00 80 81 00 00
 (467.550289)  can1  153   [8]  E4 49 00 FF 00 FF FF 80
 (467.552083)  can1  1F3   [8]  00 80 00 FF 01 80 00 08
 (467.553298)  can1  316   [8]  05 00 00 00 93 29 00 B5
 (467.554508)  can1  338   [8]  00 00 00 00 00 00 00 00
 (467.555572)  can1  545   [8]  12 00 00 00 00 01 00 00
 (467.557701)  can1  153   [8]  E4 49 00 FF 00 FF FF 80
 (467.558153)  can1  1F0   [8]  09 60 09 00 09 00 09 00
 (467.559833)  can1  1F5   [8]  02 83 00 00 80 91 00 00
 (467.563608)  can1  338   [8]  00 00 00 00 00 00 00 00
 (467.564656)  can1  153   [8]  E4 49 00 FF 00 FF FF 80
 (467.566427)  can1  329   [8]  D1 6F D0 01 00 00 00 00
 (467.567486)  can1  545   [8]  12 00 00 00 00 01 00 00
 (467.568690)  can1  1F5   [8]  02 83 00 00 80 A1 00 00
 (467.570926)  can1  153   [8]  E4 49 00 FF 00 FF FF 80
 (467.571991)  can1  1F0   [8]  09 20 09 00 09 00 09 00
 (467.573787)  can1  1F3   [8]  00 80 00 FF 01 80 00 08
 (467.574841)  can1  338   [8]  00 00 00 00 00 00 00 00
 (467.576939)  can1  545   [8]  12 00 00 00 00 01 00 00
 (467.577985)  can1  1F5   [8]  02 83 00 00 80 B1 00 00
 (467.579181)  can1  1F3   [8]  00 80 00 FF 01 80 00 08
 (467.583647)  can1  338   [8]  00 00 00 00 00 00 00 00
 (467.584705)  can1  316   [8]  05 00 00 00 93 29 00 B5
 (467.586512)  can1  1F0   [8]  09 60 09 00 09 00 09 00
 (467.587575)  can1  1F5   [8]  02 83 00 00 80 C1 00 00
 (467.591864)  can1  153   [8]  E4 49 00 FF 00 FF FF 80
 (467.592910)  can1  1F0   [8]  09 00 09 00 09 00 09 00
 (467.594740)  can1  1F3   [8]  00 80 00 FF 01 80 00 08
 (467.595640)  can1  1F5   [8]  02 83 00 00 80 D1 00 00
 (467.597157)  can1  545   [8]  12 00 00 00 00 01 00 00
 (467.598169)  can1  153   [8]  E4 49 00 FF 00 FF FF 80
 (467.599379)  can1  1F0   [8]  09 20 09 00 09 00 09 00
 (467.601214)  can1  1F3   [8]  00 80 00 FF 01 80 00 08
 (467.603661)  can1  338   [8]  00 00 00 00 00 00 00 00
 (467.604721)  can1  316   [8]  05 00 00 00 93 29 00 B5
 (467.606536)  can1  545   [8]  12 00 00 00 00 01 00 00
 (467.606990)  can1  1F0   [8]  09 40 09 00 09 00 09 00
 (467.608992)  can1  1F3   [8]  00 80 00 FF 01 80 00 08
 (467.612031)  can1  1F5   [8]  02 83 00 00 80 F1 96 04
 (467.613255)  can1  153   [8]  E4 49 00 FF 00 FF FF 80
 (467.615366)  can1  1F3   [8]  00 80 00 FF 01 80 00 08
 (467.616130)  can1  545   [8]  12 00 00 00 00 01 00 00
 (467.619862)  can1  153   [8]  E4 49 00 FF 00 FF FF 80
 (467.620927)  can1  1F0   [8]  09 00 09 00 09 00 09 00
 (467.622751)  can1  1F3   [8]  00 80 00 FF 01 80 00 08
 (467.623207)  can1  1F5   [8]  02 83 00 00 80 01 00 00
 (467.624431)  can1  329   [8]  11 6F D0 01 00 00 00 00
 (467.625806)  can1  545   [8]  12 00 00 00 00 01 00 00
 (467.627623)  can1  153   [8]  E4 49 00 FF 00 FF FF 80
 (467.628079)  can1  1F0   [8]  09 20 09 00 09 00 09 00
 (467.630073)  can1  1F3   [8]  00 80 00 FF 01 80 00 08
 (467.631148)  can1  1F5   [8]  02 83 00 00 80 11 00 00
 (467.633694)  can1  338   [8]  00 00 00 00 00 00 00 00
 (467.634786)  can1  153   [8]  E4 49 00 FF 00 FF FF 80
 (467.636579)  can1  329   [8]  11 6F D0 01 00 00 00 00
 (467.637652)  can1  545   [8]  12 00 00 00 00 01 00 00
 (467.640092)  can1  1F5   [8]  02 83 00 00 80 21 00 00
 (467.641301)  can1  153   [8]  E4 49 00 FF 00 FF FF 80
 (467.643089)  can1  1F3   [8]  00 80 00 FF 01 80 00 08
 (467.644149)  can1  338   [8]  00 00 00 00 00 00 00 00
 (467.645227)  can1  545   [8]  12 00 00 00 00 01 00 00
 (467.647958)  can1  153   [8]  E4 49 00 FF 00 FF FF 80
 (467.649010)  can1  1F0   [8]  09 00 09 00 09 00 09 00
 (467.650836)  can1  1F5   [8]  02 83 00 00 80 31 00 00
 (467.653626)  can1  338   [8]  00 00 00 00 00 00 00 00
 (467.654675)  can1  316   [8]  05 00 00 00 93 29 00 B5
 (467.656462)  can1  153   [8]  E4 49 00 FF 00 FF FF 80
 (467.657517)  can1  1F3   [8]  00 80 00 FF 01 80 00 08
 (467.658713)  can1  1F5   [8]  02 83 00 00 80 41 00 00
 (467.661891)  can1  153   [8]  E4 49 00 FF 00 FF FF 80
 (467.662950)  can1  1F0   [8]  09 40 09 00 09 00 09 00
 (467.664736)  can1  1F3   [8]  00 80 00 FF 01 80 00 08
 (467.665789)  can1  545   [8]  12 00 00 00 00 01 00 00
 (467.666984)  can1  1F5   [8]  02 83 00 00 80 51 00 00
 (467.668947)  can1  153   [8]  E4 49 00 FF 00 FF FF 80
 (467.670191)  can1  1F0   [8]  09 60 09 00 09 00 09 00
 (467.671986)  can1  1F3   [8]  00 80 00 FF 01 80 00 08
 (467.673622)  can1  338   [8]  00 00 00 00 00 00 00 00
 (467.674669)  can1  316   [8]  05 00 00 00 93 29 00 B5
 (467.676458)  can1  545   [8]  12 00 00 00 00 01 00 00
 (467.677513)  can1  153   [8]  E4 49 00 FF 00 FF FF 80
 (467.679322)  can1  1F5   [8]  02 83 00 00 80 61 00 00
 (467.682882)  can1  153   [8]  E4 49 00 FF 00 FF FF 80
 (467.683915)  can1  1F0   [8]  09 20 09 00 09 00 09 00
 (467.685670)  can1  329   [8]  11 6F D0 01 00 00 00 00
 (467.686708)  can1  1F5   [8]  02 83 00 00 80 71 FB 7D
 (467.689888)  can1  153   [8]  E4 49 00 FF 00 FF FF 80
 (467.690938)  can1  1F0   [8]  09 40 09 00 09 00 09 00
 (467.692722)  can1  1F3   [8]  00 80 00 FF 01 80 00 08
 (467.693917)  can1  338   [8]  00 00 00 00 00 00 00 00
 (467.696017)  can1  329   [8]  40 6F D0 01 00 00 00 00
 (467.696768)  can1  1F5   [8]  02 83 00 00 80 81 00 00
 (467.698268)  can1  1F3   [8]  00 80 00 FF 01 80 00 08
 (467.703020)  can1  1F5   [8]  02 83 00 00 80 91 00 00
 (467.704064)  can1  338   [8]  00 00 00 00 00 00 00 00
 (467.704957)  can1  1F0   [8]  09 00 09 00 09 00 09 00
 (467.705997)  can1  545   [8]  12 00 00 00 00 01 00 00
 (467.710909)  can1  153   [8]  E4 49 00 FF 00 FF FF 80
 (467.711955)  can1  1F0   [8]  09 20 09 00 09 00 09 00
 (467.713739)  can1  1F3   [8]  00 80 00 FF 01 80 00 08
 (467.714186)  can1  1F5   [8]  02 83 00 00 80 A1 00 00
 (467.715821)  can1  545   [8]  12 00 00 00 00 01 00 00
 (467.717601)  can1  153   [8]  E4 49 00 FF 00 FF FF 80
 (467.718505)  can1  1F0   [8]  09 40 09 00 09 00 09 00
 (467.719706)  can1  613   [8]  87 7E 0A DB 2C 00 00 00
 (467.720163)  can1  615   [8]  00 00 00 11 03 00 00 00
 (467.721947)  can1  1F5   [8]  02 83 00 00 80 B1 00 00
 (467.723293)  can1  316   [8]  05 00 00 00 93 29 00 B5
 (467.724543)  can1  338   [8]  00 00 00 00 00 00 00 00
 (467.725600)  can1  545   [8]  12 00 00 00 00 01 00 00
 (467.727707)  can1  1F3   [8]  00 80 00 FF 01 80 00 08
 (467.731085)  can1  1F5   [8]  02 83 00 00 80 C1 00 00
 (467.732281)  can1  153   [8]  E4 49 00 FF 00 FF FF 80
 (467.734407)  can1  1F3   [8]  00 80 00 FF 01 80 00 08
 (467.735147)  can1  338   [8]  00 00 00 00 00 00 00 00
 (467.737177)  can1  545   [8]  12 00 00 00 00 01 00 00
 (467.738913)  can1  153   [8]  E4 49 00 FF 00 FF FF 80
 (467.740012)  can1  1F0   [8]  09 20 09 00 09 00 09 00
 (467.741847)  can1  1F5   [8]  02 83 00 00 80 D1 00 00
 (467.743818)  can1  338   [8]  00 00 00 00 00 00 00 00
 (467.744876)  can1  316   [8]  05 00 00 00 93 29 00 B5
 (467.746082)  can1  545   [8]  12 00 00 00 00 01 00 00
 (467.747154)  can1  1F0   [8]  09 40 09 00 09 00 09 00
 (467.749005)  can1  1F3   [8]  00 80 00 FF 01 80 00 08
 (467.750062)  can1  1F5   [8]  02 83 00 00 80 E1 00 00
 (467.752920)  can1  153   [8]  E4 49 00 FF 00 FF FF 80
 (467.753970)  can1  1F0   [8]  09 60 09 00 09 00 09 00
 (467.755751)  can1  329   [8]  40 6F D0 01 00 00 00 00
 (467.756803)  can1  545   [8]  12 00 00 00 00 01 00 00
 (467.757997)  can1  1F5   [8]  02 83 00 00 80 F1 96 04
 (467.759996)  can1  153   [8]  E4 49 00 FF 00 FF FF 80
 (467.761053)  can1  1F0   [8]  09 00 09 00 09 00 09 00
 (467.762843)  can1  1F3   [8]  00 80 00 FF 01 80 00 08
 (467.764044)  can1  338   [8]  00 00 00 00 00 00 00 00
 (467.765832)  can1  329   [8]  84 6F D0 01 00 00 00 00
 (467.766891)  can1  545   [8]  12 00 00 00 00 01 00 00
 (467.768403)  can1  1F0   [8]  09 20 09 00 09 00 09 00
 (467.769146)  can1  1F5   [8]  02 83 00 00 80 01 00 00
 (467.773611)  can1  338   [8]  00 00 00 00 00 00 00 00
 (467.774656)  can1  316   [8]  05 00 00 00 93 29 00 B5
 (467.776442)  can1  329   [8]  84 6F D0 01 00 00 00 00
 (467.777491)  can1  1F5   [8]  02 83 00 00 80 11 00 00
 (467.780935)  can1  153   [8]  E4 49 00 FF 00 FF FF 80
 (467.781972)  can1  1F0   [8]  09 60 09 00 09 00 09 00
 (467.783728)  can1  1F3   [8]  00 80 00 FF 01 80 00 08
 (467.784766)  can1  338   [8]  00 00 00 00 00 00 00 00
 (467.786834)  can1  545   [8]  12 00 00 00 00 01 00 00
 (467.787862)  can1  1F5   [8]  02 83 00 00 80 21 00 00
 (467.789042)  can1  1F0   [8]  09 00 09 00 09 00 09 00
 (467.789769)  can1  1F3   [8]  00 80 00 FF 01 80 00 08
 (467.793027)  can1  338   [8]  00 00 00 00 00 00 00 00
 (467.794274)  can1  316   [8]  05 00 00 00 93 29 00 B5
 (467.796085)  can1  329   [8]  84 6F D0 01 00 00 00 00
 (467.797439)  can1  1F3   [8]  00 80 00 FF 01 80 00 08
 (467.801974)  can1  153   [8]  E4 49 00 FF 00 FF FF 80
 (467.803029)  can1  1F0   [8]  09 40 09 00 09 00 09 00
 (467.804831)  can1  1F3   [8]  00 80 00 FF 01 80 00 08
 (467.805884)  can1  329   [8]  84 6F D0 01 00 00 00 00
 (467.806784)  can1  545   [8]  12 00 00 00 00 01 00 00
 (467.808897)  can1  153   [8]  E4 49 00 FF 00 FF FF 80
 (467.809955)  can1  1F0   [8]  09 60 09 00 09 00 09 00
 (467.811762)  can1  1F3   [8]  00 80 00 FF 01 80 00 08
 (467.812812)  can1  1F5   [8]  02 83 00 00 80 51 00 00
 (467.814010)  can1  338   [8]  00 00 00 00 00 00 00 00
 (467.815068)  can1  329   [8]  84 6F D0 01 00 00 00 00
 (467.817186)  can1  545   [8]  12 00 00 00 00 01 00 00
 (467.817928)  can1  1F3   [8]  00 80 00 FF 01 80 00 08
 (467.822125)  can1  1F5   [8]  02 83 00 00 80 61 00 00
 (467.823327)  can1  153   [8]  E4 49 00 FF 00 FF FF 80
 (467.825435)  can1  1F3   [8]  00 80 00 FF 01 80 00 08
 (467.826189)  can1  545   [8]  12 00 00 00 00 01 00 00
 (467.830001)  can1  153   [8]  E4 49 00 FF 00 FF FF 80
 (467.831037)  can1  1F0   [8]  09 40 09 00 09 00 09 00
 (467.832797)  can1  1F5   [8]  02 83 00 00 80 71 FB 7D
 (467.833986)  can1  338   [8]  00 00 00 00 00 00 00 00
 (467.836090)  can1  329   [8]  D1 6F D0 01 00 00 00 00
 (467.837127)  can1  545   [8]  12 00 00 00 00 01 00 00
 (467.838327)  can1  1F3   [8]  00 80 00 FF 01 80 00 08
 (467.840911)  can1  1F5   [8]  02 83 00 00 80 81 00 00
 (467.843615)  can1  338   [8]  00 00 00 00 00 00 00 00
 (467.844666)  can1  316   [8]  05 00 00 00 93 29 00 B5
 (467.846457)  can1  329   [8]  D1 6F D0 01 00 00 00 00
 (467.847521)  can1  545   [8]  12 00 00 00 00 01 00 00
 (467.848750)  can1  1F5   [8]  02 83 00 00 80 91 00 00
 (467.851003)  can1  153   [8]  E4 49 00 FF 00 FF FF 80
 (467.852054)  can1  1F0   [8]  09 20 09 00 09 00 09 00
 (467.853841)  can1  1F3   [8]  00 80 00 FF 01 80 00 08
 (467.854895)  can1  338   [8]  00 00 00 00 00 00 00 00
 (467.856695)  can1  545   [8]  12 00 00 00 00 01 00 00
 (467.857597)  can1  1F0   [8]  09 40 09 00 09 00 09 00
 (467.858799)  can1  153   [8]  E4 49 00 FF 00 FF FF 80
 (467.859851)  can1  1F5   [8]  02 83 00 00 80 A1 00 00
 (467.863671)  can1  338   [8]  00 00 00 00 00 00 00 00
 (467.864723)  can1  316   [8]  05 00 00 00 93 29 00 B5
 (467.866512)  can1  153   [8]  E4 49 00 FF 00 FF FF 80
 (467.867566)  can1  1F3   [8]  00 80 00 FF 01 80 00 08
 (467.869369)  can1  1F5   [8]  02 83 00 00 80 B1 00 00
 (467.871987)  can1  153   [8]  E4 49 00 FF 00 FF FF 80
 (467.873025)  can1  1F0   [8]  09 00 09 00 09 00 09 00
 (467.874780)  can1  1F3   [8]  00 80 00 FF 01 80 00 08
 (467.875679)  can1  545   [8]  12 00 00 00 00 01 00 00
 (467.876860)  can1  1F5   [8]  02 83 00 00 80 C1 00 00
 (467.878931)  can1  153   [8]  E4 49 00 FF 00 FF FF 80
 (467.879979)  can1  1F0   [8]  09 20 09 00 09 00 09 00
 (467.881735)  can1  1F3   [8]  00 80 00 FF 01 80 00 08
 (467.883589)  can1  338   [8]  00 00 00 00 00 00 00 00
 (467.884618)  can1  316   [8]  05 00 00 00 93 29 00 B5
 (467.886372)  can1  545   [8]  12 00 00 00 00 01 00 00
 (467.887405)  can1  153   [8]  E4 49 00 FF 00 FF FF 80
 (467.889169)  can1  1F3   [8]  00 80 00 FF 01 80 00 08
 (467.892997)  can1  153   [8]  E4 49 00 FF 00 FF FF 80
 (467.894040)  can1  1F0   [8]  09 60 09 00 09 00 09 00
 (467.895822)  can1  338   [8]  00 00 00 00 00 00 00 00
 (467.896868)  can1  1F5   [8]  02 83 00 00 80 E1 00 00
 (467.900019)  can1  153   [8]  E4 49 00 FF 00 FF FF 80
 (467.901048)  can1  1F0   [8]  09 00 09 00 09 00 09 00
 (467.902886)  can1  1F3   [8]  00 80 00 FF 01 80 00 08
 (467.903936)  can1  1F5   [8]  02 83 00 00 80 F1 96 04
 (467.904863)  can1  329   [8]  11 6F D0 01 00 00 00 00
 (467.905316)  can1  545   [8]  12 00 00 00 00 01 00 00
 (467.907273)  can1  153   [8]  E4 49 00 FF 00 FF FF 80
 (467.908320)  can1  1F0   [8]  09 20 09 00 09 00 09 00
 (467.909996)  can1  1F3   [8]  00 80 00 FF 01 80 00 08
 (467.912554)  can1  1F5   [8]  02 83 00 00 80 01 00 00
 (467.913738)  can1  338   [8]  00 00 00 00 00 00 00 00
 (467.915390)  can1  316   [8]  05 00 00 00 93 29 00 B5
 (467.916433)  can1  545   [8]  12 00 00 00 00 01 00 00
 (467.918781)  can1  613   [8]  87 7E 0A DB 2C 00 00 00
 (467.919831)  can1  615   [8]  00 00 00 11 03 00 00 00
 (467.921018)  can1  153   [8]  E4 49 00 FF 00 FF FF 80
 (467.922063)  can1  1F0   [8]  09 60 09 00 09 00 09 00
 (467.923995)  can1  1F5   [8]  02 83 00 00 80 11 00 00
 (467.924735)  can1  338   [8]  00 00 00 00 00 00 00 00
 (467.926652)  can1  545   [8]  12 00 00 00 00 01 00 00
 (467.928128)  can1  153   [8]  E4 49 00 FF 00 FF FF 80
 (467.929169)  can1  1F0   [8]  09 00 09 00 09 00 09 00
 (467.930984)  can1  1F3   [8]  00 80 00 FF 01 80 00 08
 (467.931739)  can1  1F5   [8]  02 83 00 00 80 21 00 00
 (467.933069)  can1  338   [8]  00 00 00 00 00 00 00 00
 (467.934313)  can1  316   [8]  05 00 00 00 93 29 00 B5
 (467.936173)  can1  545   [8]  12 00 00 00 00 01 00 00
 (467.937240)  can1  1F3   [8]  00 80 00 FF 01 80 00 08
 (467.939738)  can1  1F5   [8]  02 83 00 00 80 31 00 00
 (467.942043)  can1  153   [8]  E4 49 00 FF 00 FF FF 80
 (467.943112)  can1  1F0   [8]  09 40 09 00 09 00 09 00
 (467.944923)  can1  1F3   [8]  00 80 00 FF 01 80 00 08
 (467.945377)  can1  545   [8]  12 00 00 00 00 01 00 00
 (467.949030)  can1  153   [8]  E4 49 00 FF 00 FF FF 80
 (467.950093)  can1  1F0   [8]  09 60 09 00 09 00 09 00
 (467.951904)  can1  1F5   [8]  02 83 00 00 80 41 00 00
 (467.953270)  can1  338   [8]  00 00 00 00 00 00 00 00
 (467.954331)  can1  316   [8]  05 00 00 00 93 29 00 B5
 (467.955544)  can1  545   [8]  12 00 00 00 00 01 00 00
 (467.956456)  can1  153   [8]  E4 49 00 FF 00 FF FF 80
 (467.958588)  can1  1F3   [8]  00 80 00 FF 01 80 00 08
 (467.959041)  can1  1F5   [8]  02 83 00 00 80 51 00 00
 (467.963080)  can1  153   [8]  E4 49 00 FF 00 FF FF 80
 (467.964140)  can1  1F0   [8]  09 20 09 00 09 00 09 00
 (467.965950)  can1  545   [8]  12 00 00 00 00 01 00 00
 (467.968094)  can1  1F5   [8]  02 83 00 00 80 61 00 00
 (467.970092)  can1  153   [8]  E4 49 00 FF 00 FF FF 80
 (467.971146)  can1  1F0   [8]  09 40 09 00 09 00 09 00
 (467.972953)  can1  1F3   [8]  00 80 00 FF 01 80 00 08
 (467.974159)  can1  338   [8]  00 00 00 00 00 00 00 00
 (467.975965)  can1  545   [8]  12 00 00 00 00 01 00 00
 (467.977180)  can1  1F5   [8]  02 83 00 00 80 71 FB 7D
 (467.979303)  can1  1F0   [8]  09 60 09 00 09 00 09 00
 (467.979765)  can1  1F3   [8]  00 80 00 FF 01 80 00 08
 (467.983611)  can1  338   [8]  00 00 00 00 00 00 00 00
 (467.984667)  can1  316   [8]  05 00 00 00 93 29 00 B5
 (467.986477)  can1  329   [8]  40 70 D0 01 00 00 00 00
 (467.986930)  can1  545   [8]  12 00 00 00 00 01 00 00
 (467.988917)  can1  1F5   [8]  02 83 00 00 80 81 00 00
 (467.991057)  can1  153   [8]  E4 49 00 FF 00 FF FF 80
 (467.992111)  can1  1F0   [8]  09 20 09 00 09 00 09 00
 (467.993916)  can1  1F3   [8]  00 80 00 FF 01 80 00 08
 (467.994369)  can1  338   [8]  00 00 00 00 00 00 00 00
 (467.996056)  can1  545   [8]  12 00 00 00 00 01 00 00
 (467.998169)  can1  153   [8]  E4 49 00 FF 00 FF FF 80
 (467.999384)  can1  1F0   [8]  09 40 09 00 09 00 09 00
 (468.001054)  can1  1F3   [8]  00 80 00 FF 01 80 00 08
 (468.003600)  can1  338   [8]  00 00 00 00 00 00 00 00
 (468.004674)  can1  316   [8]  05 00 00 00 93 29 00 B5
 (468.006479)  can1  545   [8]  12 00 00 00 00 01 00 00
 (468.007539)  can1  1F3   [8]  00 80 00 FF 01 80 00 08
 (468.012071)  can1  153   [8]  E4 49 00 FF 00 FF FF 80
 (468.013122)  can1  1F0   [8]  09 00 09 00 09 00 09 00
 (468.014924)  can1  1F5   [8]  02 83 00 00 80 B1 00 00
 (468.015377)  can1  545   [8]  12 00 00 00 00 01 00 00
 (468.019072)  can1  153   [8]  E4 49 00 FF 00 FF FF 80
 (468.020145)  can1  1F0   [8]  09 20 09 00 09 00 09 00
 (468.021952)  can1  1F3   [8]  00 80 00 FF 01 80 00 08
 (468.022856)  can1  1F5   [8]  02 83 00 00 80 C1 00 00
 (468.024064)  can1  338   [8]  00 00 00 00 00 00 00 00
 (468.024517)  can1  329   [8]  40 70 D0 01 00 00 00 00
 (468.026349)  can1  545   [8]  12 00 00 00 00 01 00 00
 (468.027275)  can1  153   [8]  E4 49 00 FF 00 FF FF 80
 (468.028654)  can1  1F3   [8]  00 80 00 FF 01 80 00 08
 (468.030485)  can1  1F5   [8]  02 83 00 00 80 D1 00 00
 (468.033196)  can1  153   [8]  E4 49 00 FF 00 FF FF 80
 (468.034251)  can1  1F0   [8]  09 60 09 00 09 00 09 00
 (468.035618)  can1  338   [8]  00 00 00 00 00 00 00 00
 (468.036070)  can1  545   [8]  12 00 00 00 00 01 00 00
 (468.040218)  can1  153   [8]  E4 49 00 FF 00 FF FF 80
 (468.041276)  can1  1F0   [8]  09 00 09 00 09 00 09 00
 (468.043083)  can1  1F5   [8]  02 83 00 00 80 E1 00 00
 (468.044300)  can1  338   [8]  00 00 00 00 00 00 00 00
 (468.046414)  can1  545   [8]  12 00 00 00 00 01 00 00
 (468.047626)  can1  153   [8]  E4 49 00 FF 00 FF FF 80
 (468.049519)  can1  1F3   [8]  00 80 00 FF 01 80 00 08
 (468.050426)  can1  1F5   [8]  02 83 00 00 80 F1 96 04
 (468.053596)  can1  338   [8]  00 00 00 00 00 00 00 00
 (468.054650)  can1  316   [8]  05 00 00 00 93 29 00 B5
 (468.056458)  can1  1F3   [8]  00 80 00 FF 01 80 00 08
 (468.056911)  can1  545   [8]  12 00 00 00 00 01 00 00
 (468.059287)  can1  1F5   [8]  02 83 00 00 80 01 00 00
 (468.061184)  can1  153   [8]  E4 49 00 FF 00 FF FF 80
 (468.062238)  can1  1F0   [8]  09 60 09 00 09 00 09 00
 (468.064047)  can1  1F3   [8]  00 80 00 FF 01 80 00 08
 (468.064501)  can1  338   [8]  00 00 00 00 00 00 00 00
 (468.066320)  can1  545   [8]  12 00 00 00 00 01 00 00
 (468.067533)  can1  1F5   [8]  02 83 00 00 80 11 00 00
 (468.068747)  can1  153   [8]  E4 49 00 FF 00 FF FF 80
 (468.070100)  can1  1F3   [8]  00 80 00 FF 01 80 00 08
 (468.073615)  can1  338   [8]  00 00 00 00 00 00 00 00
 (468.074662)  can1  316   [8]  05 00 00 00 93 29 00 B5
 (468.076479)  can1  545   [8]  12 00 00 00 00 01 00 00
 (468.076932)  can1  1F3   [8]  00 80 00 FF 01 80 00 08
 (468.077985)  can1  1F5   [8]  02 83 00 00 80 21 00 00
 (468.081614)  can1  153   [8]  E4 49 00 FF 00 FF FF 80
 (468.082796)  can1  1F0   [8]  09 40 09 00 09 00 09 00
 (468.084450)  can1  1F3   [8]  00 80 00 FF 01 80 00 08
 (468.085493)  can1  329   [8]  84 70 D0 01 00 00 00 00
 (468.086549)  can1  1F5   [8]  02 83 00 00 80 31 00 00
 (468.088945)  can1  153   [8]  E4 49 00 FF 00 FF FF 80
 (468.089839)  can1  1F0   [8]  09 60 09 00 09 00 09 00
 (468.090903)  can1  1F3   [8]  00 80 00 FF 01 80 00 08
 (468.093316)  can1  338   [8]  00 00 00 00 00 00 00 00
 (468.094218)  can1  316   [8]  05 00 00 00 93 29 00 B5
 (468.095273)  can1  545   [8]  12 00 00 00 00 01 00 00
 (468.095724)  can1  1F5   [8]  02 83 00 00 80 41 00 00
 (468.097726)  can1  1F0   [8]  09 00 09 00 09 00 09 00
 (468.098482)  can1  1F3   [8]  00 80 00 FF 01 80 00 08
 (468.103223)  can1  153   [8]  E4 49 00 FF 00 FF FF 80
 (468.104282)  can1  1F0   [8]  09 20 09 00 09 00 09 00
 (468.105648)  can1  1F5   [8]  02 83 00 00 80 51 00 00
 (468.106100)  can1  545   [8]  12 00 00 00 00 01 00 00
 (468.110242)  can1  153   [8]  E4 49 00 FF 00 FF FF 80
 (468.111306)  can1  1F0   [8]  09 40 09 00 09 00 09 00
 (468.113107)  can1  1F3   [8]  00 80 00 FF 01 80 00 08
 (468.114323)  can1  338   [8]  00 00 00 00 00 00 00 00
 (468.116131)  can1  329   [8]  D1 70 D0 01 00 00 00 00
 (468.117042)  can1  545   [8]  12 00 00 00 00 01 00 00
 (468.118246)  can1  1F0   [8]  09 60 09 00 09 00 09 00
 (468.118698)  can1  1F3   [8]  00 80 00 FF 01 80 00 08
 (468.120463)  can1  615   [8]  00 00 00 11 03 00 00 00
 (468.122465)  can1  1F5   [8]  02 83 00 00 80 71 FB 7D
 (468.123691)  can1  338   [8]  00 00 00 00 00 00 00 00
 (468.124920)  can1  316   [8]  05 00 00 00 93 29 00 B5
 (468.126444)  can1  545   [8]  12 00 00 00 00 01 00 00
 (468.131257)  can1  153   [8]  E4 49 00 FF 00 FF FF 80
 (468.132324)  can1  1F0   [8]  09 20 09 00 09 00 09 00
 (468.134134)  can1  1F5   [8]  02 83 00 00 80 81 00 00
 (468.134588)  can1  338   [8]  00 00 00 00 00 00 00 00
 (468.136271)  can1  545   [8]  12 00 00 00 00 01 00 00
 (468.138381)  can1  153   [8]  E4 49 00 FF 00 FF FF 80
 (468.139616)  can1  1F0   [8]  09 40 09 00 09 00 09 00
 (468.141585)  can1  1F3   [8]  00 80 00 FF 01 80 00 08
 (468.142039)  can1  1F5   [8]  02 83 00 00 80 91 00 00
 (468.142935)  can1  338   [8]  00 00 00 00 00 00 00 00
 (468.144142)  can1  316   [8]  05 00 00 00 93 29 00 B5
 (468.145957)  can1  545   [8]  12 00 00 00 00 01 00 00
 (468.147322)  can1  1F0   [8]  09 60 09 00 09 00 09 00
 (468.148095)  can1  1F3   [8]  00 80 00 FF 01 80 00 08
 (468.149735)  can1  1F5   [8]  02 83 00 00 80 A1 00 00
 (468.152300)  can1  153   [8]  E4 49 00 FF 00 FF FF 80
 (468.153346)  can1  1F0   [8]  09 00 09 00 09 00 09 00
 (468.155151)  can1  338   [8]  00 00 00 00 00 00 00 00
 (468.155606)  can1  545   [8]  12 00 00 00 00 01 00 00
 (468.158403)  can1  1F5   [8]  02 83 00 00 80 B1 00 00
 (468.159606)  can1  153   [8]  E4 49 00 FF 00 FF FF 80
 (468.161560)  can1  1F3   [8]  00 80 00 FF 01 80 00 08
 (468.163579)  can1  338   [8]  00 00 00 00 00 00 00 00
 (468.164625)  can1  316   [8]  05 00 00 00 93 29 00 B5
 (468.166423)  can1  545   [8]  12 00 00 00 00 01 00 00
 (468.166878)  can1  153   [8]  E4 49 00 FF 00 FF FF 80
 (468.168389)  can1  1F3   [8]  00 80 00 FF 01 80 00 08
 (468.168840)  can1  1F5   [8]  02 83 00 00 80 C1 00 00
 (468.172679)  can1  153   [8]  E4 49 00 FF 00 FF FF 80
 (468.173883)  can1  1F0   [8]  09 60 09 00 09 00 09 00
 (468.175538)  can1  316   [8]  05 00 00 00 93 29 00 B5
 (468.176584)  can1  545   [8]  12 00 00 00 00 01 00 00
 (468.177656)  can1  1F5   [8]  02 83 00 00 80 D1 00 00
 (468.179613)  can1  153   [8]  E4 49 00 FF 00 FF FF 80
 (468.180798)  can1  1F0   [8]  09 00 09 00 09 00 09 00
 (468.182573)  can1  1F3   [8]  00 80 00 FF 01 80 00 08
 (468.183623)  can1  338   [8]  00 00 00 00 00 00 00 00
 (468.185581)  can1  316   [8]  05 00 00 00 93 29 00 B5
 (468.186330)  can1  545   [8]  12 00 00 00 00 01 00 00
 (468.187522)  can1  1F5   [8]  02 83 00 00 80 E1 00 00
 (468.187975)  can1  1F0   [8]  09 20 09 00 09 00 09 00
 (468.189637)  can1  1F3   [8]  00 80 00 FF 01 80 00 08
 (468.193573)  can1  338   [8]  00 00 00 00 00 00 00 00
 (468.194617)  can1  316   [8]  05 00 00 00 93 29 00 B5
 (468.196409)  can1  1F3   [8]  00 80 00 FF 01 80 00 08
 (468.196862)  can1  1F5   [8]  02 83 00 00 80 F1 96 04
 (468.201263)  can1  153   [8]  E4 49 00 FF 00 FF FF 80
 (468.202307)  can1  1F0   [8]  09 60 09 00 09 00 09 00
 (468.204132)  can1  1F3   [8]  00 80 00 FF 01 80 00 08
 (468.204585)  can1  338   [8]  00 00 00 00 00 00 00 00
 (468.206105)  can1  1F5   [8]  02 83 00 00 80 01 00 00
 (468.208807)  can1  153   [8]  E0 49 00 FF 00 FF FF 80
 (468.209851)  can1  1F0   [8]  09 00 09 00 09 00 09 00
 (468.211691)  can1  1F3   [8]  C0 02 00 FF 41 7F 00 08
 (468.213222)  can1  1F5   [8]  02 83 00 00 80 11 00 00
 (468.214416)  can1  338   [8]  00 00 00 00 00 00 00 00
 (468.216213)  can1  545   [8]  12 00 00 00 00 01 00 00
 (468.216664)  can1  153   [8]  20 49 00 FF 00 FF FF 80
 (468.218189)  can1  1F3   [8]  C0 02 00 FF 41 7F 00 08
 (468.222900)  can1  153   [8]  00 48 00 FF 00 FF FF 80
 (468.223947)  can1  1F0   [8]  09 40 09 00 09 00 09 00
 (468.225745)  can1  329   [8]  11 70 D0 01 00 00 00 00
 (468.226808)  can1  545   [8]  12 00 00 00 00 01 00 00
 (468.229952)  can1  153   [8]  00 48 00 FF 00 FF FF 80
 (468.231020)  can1  1F0   [8]  09 60 09 00 09 00 09 00
 (468.232814)  can1  1F3   [8]  C0 02 00 FF 41 7F 00 08
 (468.233267)  can1  1F5   [8]  02 83 00 00 80 31 00 00
 (468.234319)  can1  329   [8]  11 70 D0 01 00 00 00 00
 (468.235369)  can1  545   [8]  12 00 00 00 00 01 00 00
 (468.237070)  can1  153   [8]  00 48 00 FF 00 FF FF 80
 (468.237522)  can1  1F0   [8]  09 00 09 00 09 00 09 00
 (468.239516)  can1  1F3   [8]  C0 02 00 FF 41 7F 00 08
 (468.240973)  can1  1F5   [8]  02 83 00 00 80 41 00 00
 (468.243574)  can1  338   [8]  00 00 00 00 00 00 00 00
 (468.244623)  can1  316   [8]  05 00 00 00 93 29 00 B5
 (468.246381)  can1  329   [8]  11 70 D0 01 00 00 00 00
 (468.247449)  can1  545   [8]  12 00 00 00 00 01 00 00
 (468.249617)  can1  1F5   [8]  02 83 00 00 80 51 00 00
 (468.250496)  can1  1F0   [8]  09 40 09 00 09 00 09 00
 (468.251529)  can1  153   [8]  00 48 00 FF 00 FF FF 80
 (468.252572)  can1  1F3   [8]  C0 02 00 FF 41 7F 00 08
 (468.254349)  can1  338   [8]  00 00 00 00 00 00 00 00
 (468.255251)  can1  316   [8]  05 00 00 00 93 29 00 B5
 (468.256891)  can1  545   [8]  12 00 00 00 00 01 00 00
 (468.258079)  can1  153   [8]  00 48 00 FF 00 FF FF 80
 (468.260024)  can1  1F0   [8]  09 60 09 00 09 00 09 00
 (468.260769)  can1  1F3   [8]  C0 02 00 FF 41 7F 00 08
 (468.261952)  can1  1F5   [8]  02 83 00 00 80 61 00 00
 (468.263588)  can1  338   [8]  00 00 00 00 00 00 00 00
 (468.264635)  can1  316   [8]  05 00 00 00 93 29 00 B5
 (468.266573)  can1  153   [8]  00 48 00 FF 00 FF FF 80
 (468.267318)  can1  1F3   [8]  C0 02 00 FF 41 7F 00 08
 (468.268501)  can1  1F5   [8]  02 83 00 00 80 71 FB 7D
 (468.271296)  can1  153   [8]  00 48 00 FF 00 FF FF 80
 (468.272462)  can1  1F0   [8]  09 20 09 00 09 00 09 00
 (468.274081)  can1  1F3   [8]  C0 02 00 FF 41 7F 00 08
 (468.275106)  can1  316   [8]  05 00 00 00 93 29 00 B5
 (468.276452)  can1  545   [8]  12 00 00 00 00 01 00 00
 (468.278293)  can1  1F5   [8]  02 83 00 00 80 81 00 00
 (468.279335)  can1  153   [8]  00 48 00 FF 00 FF FF 80
 (468.281117)  can1  1F3   [8]  C0 02 00 FF 41 7F 00 08
 (468.283568)  can1  338   [8]  00 00 00 00 00 00 00 00
 (468.284600)  can1  316   [8]  05 00 00 00 93 29 00 B5
 (468.286366)  can1  545   [8]  12 00 00 00 00 01 00 00
 (468.287266)  can1  153   [8]  00 48 00 FF 00 FF FF 80
 (468.289064)  can1  1F5   [8]  02 83 00 00 80 91 00 00
 (468.292321)  can1  153   [8]  00 48 00 FF 00 FF FF 80
 (468.293515)  can1  1F0   [8]  09 00 09 00 09 00 09 00
 (468.295170)  can1  338   [8]  00 00 00 00 00 00 00 00
 (468.296213)  can1  545   [8]  12 00 00 00 00 01 00 00
 (468.297267)  can1  1F5   [8]  02 83 00 00 80 A1 00 00
 (468.299668)  can1  153   [8]  00 48 00 FF 00 FF FF 80
 (468.300578)  can1  1F0   [8]  09 20 09 00 09 00 09 00
 (468.301633)  can1  1F3   [8]  C0 02 00 FF 41 7F 00 08
 (468.303866)  can1  338   [8]  00 00 00 00 00 00 00 00
 (468.304633)  can1  316   [8]  05 00 00 00 93 29 00 B5
 (468.306608)  can1  545   [8]  12 00 00 00 00 01 00 00
 (468.307822)  can1  153   [8]  00 48 00 FF 00 FF FF 80
 (468.309506)  can1  1F3   [8]  C0 02 00 FF 41 7F 00 08
 (468.313559)  can1  338   [8]  00 00 00 00 00 00 00 00
 (468.314604)  can1  316   [8]  05 00 00 00 93 29 00 B5
 (468.316377)  can1  1F5   [8]  02 83 00 00 80 C1 00 00
 (468.316824)  can1  545   [8]  12 00 00 00 00 01 00 00
 (468.318336)  can1  613   [8]  87 7E 0A DB 2C 00 00 00
 (468.319230)  can1  615   [8]  00 00 00 11 03 00 00 00
 (468.320614)  can1  153   [8]  00 48 00 FF 00 FF FF 80
 (468.321679)  can1  1F0   [8]  09 00 09 00 09 00 09 00
 (468.322771)  can1  1F3   [8]  C0 02 00 FF 41 7F 00 08
 (468.323225)  can1  1F5   [8]  02 83 00 00 80 D1 00 00
 (468.325030)  can1  329   [8]  84 70 D0 01 00 00 00 00
 (468.325936)  can1  545   [8]  12 00 00 00 00 01 00 00
 (468.327301)  can1  153   [8]  00 48 00 FF 00 FF FF 80
 (468.328503)  can1  1F0   [8]  09 20 09 00 09 00 09 00
 (468.330354)  can1  1F3   [8]  C0 02 00 FF 41 7F 00 08
 (468.332800)  can1  1F5   [8]  02 83 00 00 80 E1 00 00
 (468.334011)  can1  338   [8]  00 00 00 00 00 00 00 00
 (468.335802)  can1  329   [8]  84 70 D0 01 00 00 00 00
 (468.336712)  can1  1F3   [8]  C0 02 00 FF 41 7F 00 08
 (468.340838)  can1  1F5   [8]  02 83 00 00 80 F1 96 04
 (468.341724)  can1  153   [8]  00 48 00 FF 00 FF FF 80
 (468.343506)  can1  1F0   [8]  09 60 09 00 09 00 09 00
 (468.344543)  can1  1F3   [8]  C0 02 00 FF 41 7F 00 08
 (468.346194)  can1  545   [8]  12 00 00 00 00 01 00 00
 (468.348950)  can1  153   [8]  00 48 00 FF 00 FF FF 80
 (468.350008)  can1  1F0   [8]  09 00 09 00 09 00 09 00
 (468.351922)  can1  1F3   [8]  C0 02 00 FF 41 7F 00 08
 (468.352382)  can1  1F5   [8]  02 83 00 00 80 01 00 00
 (468.353433)  can1  338   [8]  00 00 00 00 00 00 00 00
 (468.354488)  can1  316   [8]  05 00 00 00 93 29 00 B5
 (468.356216)  can1  545   [8]  12 00 00 00 00 01 00 00
 (468.356669)  can1  153   [8]  00 48 00 FF 00 FF FF 80
 (468.358672)  can1  1F3   [8]  C0 02 00 FF 41 7F 00 08
 (468.359749)  can1  1F5   [8]  02 83 00 00 80 11 00 00
 (468.362953)  can1  153   [8]  00 48 00 FF 00 FF FF 80
 (468.363999)  can1  1F0   [8]  09 40 09 00 09 00 09 00
 (468.365799)  can1  338   [8]  00 00 00 00 00 00 00 00
 (468.366254)  can1  545   [8]  12 00 00 00 00 01 00 00
 (468.368935)  can1  1F5   [8]  02 83 00 00 80 21 00 00
 (468.370127)  can1  153   [8]  00 48 00 FF 00 FF FF 80
 (468.372233)  can1  1F0   [8]  09 60 09 00 09 00 09 00
 (468.372988)  can1  1F3   [8]  C0 02 00 FF 41 7F 00 08
 (468.374032)  can1  338   [8]  00 00 00 00 00 00 00 00
 (468.375080)  can1  545   [8]  12 00 00 00 00 01 00 00
 (468.376878)  can1  153   [8]  00 48 00 FF 00 FF FF 80
 (468.377783)  can1  1F0   [8]  09 00 09 00 09 00 09 00
 (468.379614)  can1  1F5   [8]  02 83 00 00 80 31 00 00
 (468.383550)  can1  338   [8]  00 00 00 00 00 00 00 00
 (468.384585)  can1  316   [8]  05 00 00 00 93 29 00 B5
 (468.386383)  can1  329   [8]  84 70 D0 01 00 00 00 00
 (468.386833)  can1  545   [8]  12 00 00 00 00 01 00 00
 (468.387880)  can1  1F5   [8]  02 83 00 00 80 41 00 00
 (468.390964)  can1  153   [8]  00 48 00 FF 00 FF FF 80
 (468.392011)  can1  1F0   [8]  09 40 09 00 09 00 09 00
 (468.393819)  can1  1F3   [8]  C0 02 00 FF 41 7F 00 08
 (468.394274)  can1  338   [8]  00 00 00 00 00 00 00 00
 (468.395806)  can1  545   [8]  12 00 00 00 00 01 00 00
 (468.396853)  can1  1F5   [8]  02 83 00 00 80 51 00 00
 (468.398079)  can1  153   [8]  00 48 00 FF 00 FF FF 80
 (468.399131)  can1  1F0   [8]  09 60 09 00 09 00 09 00
 (468.400881)  can1  1F3   [8]  C0 02 00 FF 41 7F 00 08
 (468.403593)  can1  338   [8]  00 00 00 00 00 00 00 00
 (468.404668)  can1  316   [8]  05 00 00 00 93 29 00 B5
 (468.406505)  can1  153   [8]  00 48 00 FF 00 FF FF 80
 (468.407547)  can1  1F5   [8]  02 83 00 00 80 61 00 00
 (468.411994)  can1  153   [8]  00 48 00 FF 00 FF FF 80
 (468.413056)  can1  1F0   [8]  09 20 09 00 09 00 09 00
 (468.414844)  can1  1F3   [8]  C0 02 00 FF 41 7F 00 08
 (468.415907)  can1  329   [8]  D1 70 D0 01 00 00 00 00
 (468.417113)  can1  545   [8]  12 00 00 00 00 01 00 00
 (468.418997)  can1  153   [8]  00 48 00 FF 00 FF FF 80
 (468.420056)  can1  1F0   [8]  09 40 09 00 09 00 09 00
 (468.421856)  can1  1F3   [8]  C0 02 00 FF 41 7F 00 08
 (468.422900)  can1  338   [8]  00 00 00 00 00 00 00 00
 (468.424106)  can1  316   [8]  05 00 00 00 93 29 00 B5
 (468.425780)  can1  329   [8]  D1 70 D0 01 00 00 00 00
 (468.426837)  can1  545   [8]  12 00 00 00 00 01 00 00
 (468.428677)  can1  1F3   [8]  C0 02 00 FF 41 7F 00 08
 (468.432115)  can1  1F5   [8]  02 83 00 00 80 91 00 00
 (468.433326)  can1  153   [8]  00 48 00 FF 00 FF FF 80
 (468.435436)  can1  1F3   [8]  C0 02 00 FF 41 7F 00 08
 (468.436201)  can1  545   [8]  12 00 00 00 00 01 00 00
 (468.440036)  can1  153   [8]  00 48 00 FF 00 FF FF 80
 (468.441100)  can1  1F0   [8]  09 20 09 00 09 00 09 00
 (468.442916)  can1  1F3   [8]  C0 02 00 FF 41 7F 00 08
 (468.443372)  can1  1F5   [8]  02 83 00 00 80 A1 00 00
 (468.444597)  can1  545   [8]  12 00 00 00 00 01 00 00
 (468.447470)  can1  153   [8]  00 48 00 FF 00 FF FF 80
 (468.447923)  can1  1F0   [8]  09 40 09 00 09 00 09 00
 (468.449762)  can1  1F3   [8]  C0 02 00 FF 41 7F 00 08
 (468.450673)  can1  1F5   [8]  02 83 00 00 80 B1 00 00
 (468.453573)  can1  338   [8]  00 00 00 00 00 00 00 00
 (468.454632)  can1  316   [8]  05 00 00 00 93 29 00 B5
 (468.456447)  can1  329   [8]  D1 70 D0 01 00 00 00 00
 (468.456902)  can1  545   [8]  12 00 00 00 00 01 00 00
 (468.460160)  can1  1F5   [8]  02 83 00 00 80 C1 00 00
 (468.461375)  can1  153   [8]  00 48 00 FF 00 FF FF 80
 (468.463590)  can1  1F3   [8]  C0 02 00 FF 41 7F 00 08
 (468.464354)  can1  338   [8]  00 00 00 00 00 00 00 00
 (468.466506)  can1  545   [8]  12 00 00 00 00 01 00 00
 (468.467922)  can1  153   [8]  00 48 00 FF 00 FF FF 80
 (468.468987)  can1  1F0   [8]  09 20 09 00 09 00 09 00
 (468.470688)  can1  1F5   [8]  02 83 00 00 80 D1 00 00
 (468.473562)  can1  338   [8]  00 00 00 00 00 00 00 00
 (468.474623)  can1  316   [8]  05 00 00 00 93 29 00 B5
 (468.476422)  can1  545   [8]  12 00 00 00 00 01 00 00
 (468.477484)  can1  1F3   [8]  C0 02 00 FF 41 7F 00 08
 (468.478694)  can1  1F5   [8]  02 83 00 00 80 E1 00 00
 (468.482046)  can1  153   [8]  00 48 00 FF 00 FF FF 80
 (468.483108)  can1  1F0   [8]  09 60 09 00 09 00 09 00
 (468.484920)  can1  1F3   [8]  C0 02 00 FF 41 7F 00 08
 (468.485377)  can1  545   [8]  12 00 00 00 00 01 00 00
 (468.486600)  can1  1F5   [8]  02 83 00 00 80 F1 96 04
 (468.488718)  can1  153   [8]  00 48 00 FF 00 FF FF 80
 (468.489774)  can1  1F0   [8]  09 00 09 00 09 00 09 00
 (468.490989)  can1  1F3   [8]  C0 02 00 FF 41 7F 00 08
 (468.492971)  can1  338   [8]  00 00 00 00 00 00 00 00
 (468.494175)  can1  316   [8]  05 00 00 00 93 29 00 B5
 (468.496005)  can1  545   [8]  12 00 00 00 00 01 00 00
 (468.497368)  can1  153   [8]  00 48 00 FF 00 FF FF 80
 (468.499179)  can1  1F5   [8]  02 83 00 00 80 01 00 00
 (468.502451)  can1  153   [8]  00 48 00 FF 00 FF FF 80
 (468.503652)  can1  1F0   [8]  09 40 09 00 09 00 09 00
 (468.505298)  can1  316   [8]  05 00 00 00 93 29 00 B5
 (468.506344)  can1  545   [8]  12 00 00 00 00 01 00 00
 (468.507394)  can1  1F5   [8]  02 83 00 00 80 11 00 00
 (468.509445)  can1  153   [8]  00 48 00 FF 00 FF FF 80
 (468.510687)  can1  1F0   [8]  09 60 09 00 09 00 09 00
 (468.512503)  can1  1F3   [8]  C0 02 00 FF 41 7F 00 08
 (468.513715)  can1  338   [8]  00 00 00 00 00 00 00 00
 (468.515526)  can1  316   [8]  05 00 00 00 93 29 00 B5
 (468.516894)  can1  545   [8]  12 00 00 00 00 01 00 00
 (468.518103)  can1  1F5   [8]  02 83 00 00 80 21 00 00
 (468.518557)  can1  1F3   [8]  C0 02 00 FF 41 7F 00 08
 (468.520217)  can1  615   [8]  00 00 00 11 03 00 00 00
 (468.523223)  can1  1F5   [8]  02 83 00 00 80 31 00 00
 (468.524361)  can1  338   [8]  00 00 00 00 00 00 00 00
 (468.526203)  can1  1F0   [8]  09 20 09 00 09 00 09 00
 (468.526660)  can1  545   [8]  12 00 00 00 00 01 00 00
 (468.531076)  can1  153   [8]  00 48 00 FF 00 FF FF 80
 (468.532128)  can1  1F0   [8]  09 40 09 00 09 00 09 00
 (468.533957)  can1  1F3   [8]  C0 02 00 FF 41 7F 00 08
 (468.534412)  can1  338   [8]  00 00 00 00 00 00 00 00
 (468.536060)  can1  545   [8]  12 00 00 00 00 01 00 00
 (468.537705)  can1  153   [8]  00 48 00 FF 00 FF FF 80
 (468.538764)  can1  1F0   [8]  09 60 09 00 09 00 09 00
 (468.540775)  can1  1F3   [8]  C0 02 00 FF 41 7F 00 08
 (468.541971)  can1  1F5   [8]  02 83 00 00 80 51 00 00
 (468.543039)  can1  338   [8]  00 00 00 00 00 00 00 00
 (468.544236)  can1  316   [8]  05 00 00 00 93 29 00 B5
 (468.545886)  can1  545   [8]  12 00 00 00 00 01 00 00
 (468.546959)  can1  1F3   [8]  C0 02 00 FF 41 7F 00 08
 (468.551282)  can1  1F5   [8]  02 83 00 00 80 61 00 00
 (468.552477)  can1  153   [8]  00 48 00 FF 00 FF FF 80
 (468.554158)  can1  1F3   [8]  C0 02 00 FF 41 7F 00 08
 (468.555066)  can1  316   [8]  05 00 00 00 93 29 00 B5
 (468.556129)  can1  545   [8]  12 00 00 00 00 01 00 00
 (468.559091)  can1  153   [8]  00 48 00 FF 00 FF FF 80
 (468.560153)  can1  1F0   [8]  09 40 09 00 09 00 09 00
 (468.561968)  can1  1F5   [8]  02 83 00 00 80 71 FB 7D
 (468.563177)  can1  338   [8]  00 00 00 00 00 00 00 00
 (468.564224)  can1  316   [8]  05 00 00 00 93 29 00 B5
 (468.565287)  can1  545   [8]  12 00 00 00 00 01 00 00
 (468.566200)  can1  153   [8]  00 48 00 FF 00 FF FF 80
 (468.568340)  can1  1F3   [8]  C0 02 00 FF 41 7F 00 08
 (468.569572)  can1  1F5   [8]  02 83 00 00 80 81 00 00
 (468.573099)  can1  153   [8]  00 48 00 FF 00 FF FF 80
 (468.574143)  can1  1F0   [8]  09 00 09 00 09 00 09 00
 (468.575939)  can1  338   [8]  00 00 00 00 00 00 00 00
 (468.576839)  can1  545   [8]  12 00 00 00 00 01 00 00
 (468.578026)  can1  1F5   [8]  02 83 00 00 80 91 00 00
 (468.580132)  can1  153   [8]  00 48 00 FF 00 FF FF 80
 (468.581180)  can1  1F0   [8]  09 20 09 00 09 00 09 00
 (468.582982)  can1  1F3   [8]  C0 02 00 FF 41 7F 00 08
 (468.584187)  can1  338   [8]  00 00 00 00 00 00 00 00
 (468.585969)  can1  545   [8]  12 00 00 00 00 01 00 00
 (468.587024)  can1  153   [8]  00 48 00 FF 00 FF FF 80
 (468.589134)  can1  1F0   [8]  09 40 09 00 09 00 09 00
 (468.589929)  can1  1F5   [8]  02 83 00 00 80 A1 00 00
 (468.593552)  can1  338   [8]  00 00 00 00 00 00 00 00
 (468.594603)  can1  316   [8]  05 00 00 00 93 29 00 B5
 (468.596405)  can1  1F3   [8]  C0 02 00 FF 41 7F 00 08
 (468.596859)  can1  545   [8]  12 00 00 00 00 01 00 00
 (468.598383)  can1  1F5   [8]  02 83 00 00 80 B1 00 00
 (468.601109)  can1  153   [8]  00 48 00 FF 00 FF FF 80
 (468.602148)  can1  1F0   [8]  09 00 09 00 09 00 09 00
 (468.603919)  can1  1F3   [8]  C0 02 00 FF 41 7F 00 08
 (468.604365)  can1  338   [8]  00 00 00 00 00 00 00 00
 (468.606012)  can1  545   [8]  12 00 00 00 00 01 00 00
 (468.607053)  can1  1F5   [8]  02 83 00 00 80 C1 00 00
 (468.608097)  can1  153   [8]  00 48 00 FF 00 FF FF 80
 (468.609283)  can1  1F0   [8]  09 20 09 00 09 00 09 00
 (468.610944)  can1  1F3   [8]  C0 02 00 FF 41 7F 00 08
 (468.613552)  can1  338   [8]  00 00 00 00 00 00 00 00
 (468.614602)  can1  316   [8]  05 00 00 00 93 29 00 B5
 (468.616398)  can1  545   [8]  12 00 00 00 00 01 00 00
 (468.616850)  can1  1F3   [8]  C0 02 00 FF 41 7F 00 08
 (468.622123)  can1  153   [8]  00 48 00 FF 00 FF FF 80
 (468.623176)  can1  1F0   [8]  09 60 09 00 09 00 09 00
 (468.624978)  can1  338   [8]  00 00 00 00 00 00 00 00
