 (000.000000)  can0  613   [8]  87 7E 09 DD 2C 00 00 00
 (000.001112)  can0  615   [8]  00 00 00 11 01 00 00 00
 (000.077619)  can0  338   [8]  00 00 00 00 00 00 00 00
 (000.078655)  can0  316   [8]  15 00 00 00 00 00 00 00
 (000.080440)  can0  545   [8]  12 00 00 00 00 01 00 00
 (000.087173)  can0  338   [8]  00 00 00 00 00 00 00 00
 (000.088345)  can0  316   [8]  05 00 00 00 00 1D 00 0B
 (000.089961)  can0  545   [8]  12 00 00 00 00 01 00 00
 (000.092543)  can0  1F5   [8]  CA 81 00 00 80 01 00 80
 (000.093715)  can0  610   [0]  remote request
 (000.095624)  can0  610   [8]  30 95 60 4B 50 00 00 00
 (000.096516)  can0  1F3   [8]  00 80 00 09 02 80 00 00
 (000.097550)  can0  338   [8]  00 00 00 00 00 00 00 00
 (000.098581)  can0  316   [8]  05 00 00 00 1D 1D 00 00
 (000.099623)  can0  545   [8]  12 00 00 00 00 01 00 00
 (000.101536)  can0  153   [8]  E4 49 00 FF 00 FF FF 80
 (000.102424)  can0  1F0   [8]  09 00 09 00 09 00 09 00
 (000.104204)  can0  1F5   [8]  CA 81 00 00 80 11 00 80
 (000.107222)  can0  338   [8]  00 00 00 00 00 00 00 00
 (000.108392)  can0  153   [8]  E4 49 00 FF 00 FF FF 80
 (000.110006)  can0  1F3   [8]  00 80 00 09 02 80 00 00
 (000.111033)  can0  545   [8]  12 00 00 00 00 01 00 00
 (000.112072)  can0  1F5   [8]  CA 81 00 00 80 21 00 00
 (000.114429)  can0  153   [8]  E4 49 00 FF 00 FF FF 80
 (000.115599)  can0  1F0   [8]  09 40 09 00 09 00 09 00
 (000.117215)  can0  1F3   [8]  00 80 00 08 02 80 00 00
 (000.118244)  can0  338   [8]  00 00 00 00 00 00 00 00
 (000.119284)  can0  545   [8]  12 00 00 00 00 01 00 00
 (000.120174)  can0  1F5   [8]  CA 81 00 00 80 31 00 00
 (000.122100)  can0  153   [8]  E4 49 00 FF 00 FF FF 80
 (000.123136)  can0  1F0   [8]  09 60 09 00 09 00 09 00
 (000.124175)  can0  1F3   [8]  00 80 00 08 02 80 00 00
 (000.127159)  can0  338   [8]  00 00 00 00 00 00 00 00
 (000.128329)  can0  316   [8]  05 00 00 00 1D 1D 00 00
 (000.129943)  can0  545   [8]  12 00 00 00 00 01 00 00
 (000.130971)  can0  1F3   [8]  00 80 00 08 02 80 00 00
 (000.132002)  can0  1F5   [8]  CA 81 00 00 80 41 00 00
 (000.135624)  can0  153   [8]  E4 49 00 FF 00 FF FF 80
 (000.136796)  can0  1F0   [8]  09 20 09 00 09 00 09 00
 (000.138414)  can0  1F3   [8]  00 80 00 08 02 80 00 00
 (000.139444)  can0  316   [8]  05 00 00 00 1D 1D 00 00
 (000.141372)  can0  545   [8]  12 00 00 00 00 01 00 00
 (000.142572)  can0  153   [8]  E4 49 00 FF 00 FF FF 80
 (000.143742)  can0  1F0   [8]  09 40 09 00 09 00 09 00
 (000.145358)  can0  1F3   [8]  00 80 00 07 02 80 00 00
 (000.146393)  can0  615   [8]  00 00 00 11 03 00 00 00
 (000.147574)  can0  338   [8]  00 00 00 00 00 00 00 00
 (000.148607)  can0  316   [8]  05 00 00 00 1D 1D 00 00
 (000.150241)  can0  545   [8]  12 00 00 00 00 01 00 00
 (000.151272)  can0  153   [8]  E4 49 00 FF 00 FF FF 80
 (000.152453)  can0  1F3   [8]  00 80 00 07 02 80 00 00
 (000.155668)  can0  1F5   [8]  CA 81 00 00 80 71 E7 6A
 (000.156839)  can0  1F0   [8]  09 00 09 00 09 00 09 00
 (000.158009)  can0  153   [8]  E4 49 00 FF 00 FF FF 80
 (000.158744)  can0  329   [8]  40 7B D0 01 00 00 00 00
 (000.160647)  can0  545   [8]  12 00 00 00 00 01 00 00
 (000.163591)  can0  153   [8]  E4 49 00 FF 00 FF FF 80
 (000.164764)  can0  1F0   [8]  09 20 09 00 09 00 09 00
 (000.166388)  can0  1F3   [8]  00 80 00 07 02 80 00 00
 (000.167417)  can0  1F5   [8]  CA 81 00 00 80 81 00 00
 (000.168459)  can0  338   [8]  00 00 00 00 00 00 00 00
 (000.169494)  can0  545   [8]  12 00 00 00 00 01 00 00
 (000.171134)  can0  153   [8]  E4 49 00 FF 00 FF FF 80
 (000.172165)  can0  1F0   [8]  09 40 09 00 09 00 09 00
 (000.173208)  can0  1F3   [8]  00 80 00 06 02 80 00 00
 (000.174393)  can0  1F5   [8]  CA 81 00 00 80 91 00 00
 (000.177750)  can0  338   [8]  00 00 00 00 00 00 00 00
 (000.178775)  can0  316   [8]  05 00 00 00 97 1D 00 00
 (000.180513)  can0  329   [8]  40 7B D0 01 00 00 00 00
 (000.181394)  can0  545   [8]  12 00 00 00 00 01 00 00
 (000.183735)  can0  1F5   [8]  CA 81 00 00 80 A1 00 00
 (000.184895)  can0  1F0   [8]  09 00 09 00 09 00 09 00
 (000.186056)  can0  153   [8]  E4 49 00 FF 00 FF FF 80
 (000.186800)  can0  1F3   [8]  00 80 00 06 02 80 00 00
 (000.188735)  can0  338   [8]  00 00 00 00 00 00 00 00
 (000.189475)  can0  316   [8]  05 00 00 00 97 1D 00 00
 (000.191113)  can0  545   [8]  12 00 00 00 00 01 00 00
 (000.192286)  can0  153   [8]  E4 49 00 FF 00 FF FF 80
 (000.194051)  can0  1F0   [8]  09 20 09 00 09 00 09 00
 (000.195082)  can0  1F5   [8]  CA 81 00 00 80 B1 00 00
 (000.197211)  can0  338   [8]  00 00 00 00 00 00 00 00
 (000.198384)  can0  316   [8]  05 00 00 00 91 1D 00 00
 (000.200002)  can0  545   [8]  12 00 00 00 00 01 00 00
 (000.201033)  can0  1F3   [8]  00 80 00 06 02 80 00 00
 (000.202685)  can0  615   [8]  00 00 00 11 03 00 00 00
 (000.203573)  can0  1F5   [8]  CA 81 00 00 80 C1 00 00
 (000.205605)  can0  153   [8]  E4 49 00 FF 00 FF FF 80
 (000.206781)  can0  1F0   [8]  09 60 09 00 09 00 09 00
 (000.208399)  can0  1F3   [8]  00 80 00 06 02 80 00 00
 (000.209429)  can0  316   [8]  05 00 00 00 91 1D 00 00
 (000.210469)  can0  545   [8]  12 00 00 00 00 01 00 00
 (000.211653)  can0  1F5   [8]  CA 81 00 00 80 D1 00 00
 (000.212693)  can0  153   [8]  E4 49 00 FF 00 FF FF 80
 (000.213864)  can0  1F0   [8]  09 00 09 00 09 00 09 00
 (000.215483)  can0  1F3   [8]  00 80 00 05 02 80 00 00
 (000.217269)  can0  338   [8]  00 00 00 00 00 00 00 00
 (000.218440)  can0  316   [8]  05 00 00 00 91 1D 00 00
 (000.220061)  can0  545   [8]  12 00 00 00 00 01 00 00
 (000.221090)  can0  153   [8]  E4 49 00 FF 00 FF FF 80
 (000.222729)  can0  1F5   [8]  CA 81 00 00 80 E1 00 00
 (000.226641)  can0  153   [8]  E4 49 00 FF 00 FF FF 80
 (000.227813)  can0  1F0   [8]  09 40 09 00 09 00 09 00
 (000.229433)  can0  316   [8]  05 00 00 00 91 1D 00 00
 (000.230463)  can0  545   [8]  12 00 00 00 00 01 00 00
 (000.231504)  can0  1F5   [8]  CA 81 00 00 80 F1 96 04
 (000.233622)  can0  153   [8]  E4 49 00 FF 00 FF FF 80
 (000.234794)  can0  1F0   [8]  09 60 09 00 09 00 09 00
 (000.236416)  can0  1F3   [8]  00 80 00 05 02 80 00 00
 (000.237589)  can0  316   [8]  05 00 00 00 91 1D 00 00
 (000.239349)  can0  338   [8]  00 00 00 00 00 00 00 00
 (000.240379)  can0  545   [8]  12 00 00 00 00 01 00 00
 (000.241420)  can0  1F5   [8]  CA 81 00 00 80 01 00 00
 (000.242605)  can0  1F3   [8]  00 80 00 05 02 80 00 00
 (000.246732)  can0  1F5   [8]  CA 81 00 00 80 11 00 00
 (000.247903)  can0  338   [8]  00 00 00 00 00 00 00 00
 (000.249521)  can0  316   [8]  05 00 00 00 91 1D 00 00
 (000.250549)  can0  545   [8]  12 00 00 00 00 01 00 00
 (000.254670)  can0  153   [8]  E4 49 00 FF 00 FF FF 80
 (000.255847)  can0  1F0   [8]  09 40 09 00 09 00 09 00
 (000.257467)  can0  1F3   [8]  00 80 00 04 02 80 00 00
 (000.258497)  can0  1F5   [8]  CA 81 00 00 80 21 00 00
 (000.260137)  can0  545   [8]  12 00 00 00 00 01 00 00
 (000.261898)  can0  153   [8]  E4 49 00 FF 00 FF FF 80
 (000.262787)  can0  1F0   [8]  09 60 09 00 09 00 09 00
 (000.263971)  can0  1F3   [8]  00 80 00 04 02 80 00 00
 (000.265887)  can0  1F5   [8]  CE 81 0C 80 80 31 00 00
 (000.267660)  can0  338   [8]  00 00 00 00 00 00 00 00
 (000.268846)  can0  316   [8]  05 00 00 00 91 1D 00 00
 (000.270628)  can0  545   [8]  12 00 00 00 00 01 00 00
 (000.271520)  can0  1F3   [8]  00 80 00 04 02 80 00 00
 (000.274768)  can0  1F5   [8]  CA 81 74 01 80 41 00 00
 (000.275944)  can0  1F0   [8]  09 20 09 00 09 00 09 00
 (000.277123)  can0  153   [8]  E4 49 00 FF 00 FF FF 80
 (000.277862)  can0  1F3   [8]  00 80 00 04 02 80 00 00
 (000.279774)  can0  545   [8]  12 00 00 00 00 01 00 00
 (000.282689)  can0  153   [8]  E4 49 00 FF 00 FF FF 80
 (000.283861)  can0  1F0   [8]  09 40 09 00 09 00 09 00
 (000.285480)  can0  1F3   [8]  00 80 00 04 02 80 00 00
 (000.286512)  can0  1F5   [8]  CA 81 00 00 80 51 00 00
 (000.287405)  can0  338   [8]  00 00 00 00 00 00 00 00
 (000.288435)  can0  316   [8]  05 00 00 00 91 1D 00 00
 (000.290347)  can0  545   [8]  12 00 00 00 00 01 00 00
 (000.291236)  can0  153   [8]  E4 49 00 FF 00 FF FF 80
 (000.293018)  can0  1F3   [8]  00 80 00 04 02 80 00 00
 (000.293911)  can0  1F5   [8]  CA 81 00 00 80 61 00 00
 (000.296705)  can0  153   [8]  E4 49 00 FF 00 FF FF 80
 (000.297874)  can0  1F0   [8]  09 00 09 00 09 00 09 00
 (000.299489)  can0  316   [8]  05 00 00 00 91 1D 00 00
 (000.300518)  can0  545   [8]  12 00 00 00 00 01 00 00
 (000.301698)  can0  1F5   [8]  CA 81 00 00 80 71 E7 6A
 (000.303699)  can0  153   [8]  E4 49 00 FF 00 FF FF 80
 (000.304868)  can0  1F0   [8]  09 20 09 00 09 00 09 00
 (000.306488)  can0  1F3   [8]  00 80 00 03 02 80 00 00
 (000.307658)  can0  316   [8]  05 00 00 00 91 1D 00 00
 (000.309566)  can0  338   [8]  00 00 00 00 00 00 00 00
 (000.310303)  can0  545   [8]  12 00 00 00 00 01 00 00
 (000.311200)  can0  153   [8]  E4 49 00 FF 00 FF FF 80
 (000.312086)  can0  1F0   [8]  09 40 09 00 09 00 09 00
 (000.313124)  can0  1F5   [8]  CA 81 00 00 80 81 00 00
 (000.317141)  can0  338   [8]  00 00 00 00 00 00 00 00
 (000.318300)  can0  316   [8]  05 00 00 00 91 1D 00 9A
 (000.319898)  can0  153   [8]  E4 49 00 FF 00 FF FF 80
 (000.320920)  can0  545   [8]  12 00 00 00 00 01 00 00
 (000.322393)  can0  1F5   [8]  CA 81 00 00 80 91 00 00
 (000.324704)  can0  153   [8]  E4 49 00 FF 00 FF FF 80
 (000.325868)  can0  1F0   [8]  09 00 09 00 09 00 09 00
 (000.327485)  can0  1F3   [8]  00 80 00 03 02 80 00 00
 (000.328523)  can0  338   [8]  00 00 00 00 00 00 00 00
 (000.330162)  can0  545   [8]  12 00 00 00 00 01 00 00
 (000.331192)  can0  1F5   [8]  CA 81 00 00 80 A1 00 00
 (000.332230)  can0  153   [8]  E4 49 00 FF 00 FF FF 80
 (000.333412)  can0  1F0   [8]  09 20 09 00 09 00 09 00
 (000.335049)  can0  1F3   [8]  00 80 00 03 02 80 00 00
 (000.337144)  can0  338   [8]  00 00 00 00 00 00 00 00
 (000.338299)  can0  316   [8]  05 00 00 00 91 27 00 9E
 (000.339893)  can0  1F5   [8]  CA 81 00 00 80 B1 00 00
 (000.340908)  can0  1F0   [8]  09 40 09 00 09 00 09 00
 (000.341931)  can0  1F3   [8]  00 80 00 03 02 80 00 00
 (000.345706)  can0  153   [8]  E4 49 00 FF 00 FF FF 80
 (000.346904)  can0  1F0   [8]  09 60 09 00 09 00 09 00
 (000.348518)  can0  1F3   [8]  00 80 00 03 02 80 00 00
 (000.349545)  can0  329   [8]  D1 7B D0 01 00 00 00 00
 (000.350724)  can0  545   [8]  12 00 00 00 00 01 00 00
 (000.352729)  can0  153   [8]  E4 49 00 FF 00 FF FF 80
 (000.353898)  can0  1F0   [8]  09 00 09 00 09 00 09 00
 (000.355513)  can0  1F3   [8]  00 80 00 02 02 80 00 00
 (000.356686)  can0  1F5   [8]  CA 81 00 00 80 D1 00 00
 (000.357716)  can0  338   [8]  00 00 00 00 00 00 00 00
 (000.358748)  can0  316   [8]  05 00 00 00 91 27 00 A2
 (000.360385)  can0  545   [8]  12 00 00 00 00 01 00 00
 (000.361414)  can0  153   [8]  E4 49 00 FF 00 FF FF 80
 (000.362595)  can0  1F3   [8]  00 80 00 02 02 80 00 00
 (000.365888)  can0  1F5   [8]  CA 81 00 00 80 E1 00 00
 (000.367058)  can0  1F0   [8]  09 40 09 00 09 00 09 00
 (000.368232)  can0  153   [8]  E4 49 00 FF 00 FF FF 80
 (000.368968)  can0  329   [8]  11 7B D0 01 00 00 00 00
 (000.370873)  can0  545   [8]  12 00 00 00 00 01 00 00
 (000.373720)  can0  153   [8]  E4 49 00 FF 00 FF FF 80
 (000.374889)  can0  1F0   [8]  09 60 09 00 09 00 09 00
 (000.376504)  can0  1F3   [8]  00 80 00 02 02 80 00 00
 (000.377551)  can0  1F5   [8]  CA 81 00 00 80 F1 96 04
 (000.378590)  can0  338   [8]  00 00 00 00 00 00 00 00
 (000.379624)  can0  545   [8]  12 00 00 00 00 01 00 00
 (000.381119)  can0  153   [8]  E4 49 00 FF 00 FF FF 80
 (000.382146)  can0  1F0   [8]  09 00 09 00 09 00 09 00
 (000.384053)  can0  1F3   [8]  00 80 00 02 02 80 00 00
 (000.384933)  can0  1F5   [8]  CA 81 00 00 80 01 00 00
 (000.387135)  can0  338   [8]  00 00 00 00 00 00 00 00
 (000.388306)  can0  316   [8]  05 00 00 00 91 27 00 A6
 (000.389922)  can0  153   [8]  E4 49 00 FF 00 FF FF 80
 (000.390951)  can0  545   [8]  12 00 00 00 00 01 00 00
 (000.392459)  can0  1F5   [8]  CA 81 00 00 80 11 00 00
 (000.394738)  can0  153   [8]  E4 49 00 FF 00 FF FF 80
 (000.395911)  can0  1F0   [8]  09 40 09 00 09 00 09 00
 (000.397531)  can0  1F3   [8]  00 80 00 02 02 80 00 00
 (000.398559)  can0  338   [8]  00 00 00 00 00 00 00 00
 (000.400192)  can0  545   [8]  12 00 00 00 00 01 00 00
 (000.401221)  can0  613   [8]  87 7E 09 DD 2C 00 00 00
 (000.402401)  can0  615   [8]  00 00 00 11 03 00 00 00
 (000.403434)  can0  1F0   [8]  09 60 09 00 09 00 09 00
 (000.405071)  can0  1F5   [8]  CA 81 00 00 80 21 00 00
 (000.407135)  can0  338   [8]  00 00 00 00 00 00 00 00
 (000.408304)  can0  316   [8]  05 00 00 00 91 27 00 A8
 (000.409917)  can0  545   [8]  12 00 00 00 00 01 00 00
 (000.410946)  can0  1F0   [8]  09 00 09 00 09 00 09 00
 (000.411983)  can0  1F3   [8]  00 80 00 02 02 80 00 00
 (000.413016)  can0  1F5   [8]  CA 81 00 00 80 31 00 00
 (000.415753)  can0  153   [8]  E4 49 00 FF 00 FF FF 80
 (000.416924)  can0  1F0   [8]  09 20 09 00 09 00 09 00
 (000.418541)  can0  1F3   [8]  00 80 00 02 02 80 00 00
 (000.419571)  can0  329   [8]  11 7B D0 01 00 00 00 00
 (000.420609)  can0  545   [8]  12 00 00 00 00 01 00 00
 (000.421792)  can0  1F5   [8]  CA 81 00 00 80 41 00 00
 (000.422826)  can0  153   [8]  E4 49 00 FF 00 FF FF 80
 (000.423996)  can0  1F0   [8]  09 40 09 00 09 00 09 00
 (000.425609)  can0  1F3   [8]  00 80 00 02 02 80 00 00
 (000.427366)  can0  338   [8]  00 00 00 00 00 00 00 00
 (000.428250)  can0  316   [8]  05 00 00 00 91 27 00 AA
 (000.429434)  can0  545   [8]  12 00 00 00 00 01 00 00
 (000.429878)  can0  1F5   [8]  CA 81 00 00 80 51 00 00
 (000.431632)  can0  1F3   [8]  00 80 00 01 02 80 00 00
 (000.436784)  can0  153   [8]  E4 49 00 FF 00 FF FF 80
 (000.437953)  can0  1F0   [8]  09 00 09 00 09 00 09 00
 (000.439566)  can0  316   [8]  05 00 00 00 91 27 00 AB
 (000.440594)  can0  545   [8]  12 00 00 00 00 01 00 00
 (000.441633)  can0  1F5   [8]  CA 81 00 00 80 61 00 00
 (000.443763)  can0  153   [8]  E4 49 00 FF 00 FF FF 80
 (000.444932)  can0  1F0   [8]  09 20 09 00 09 00 09 00
 (000.446553)  can0  1F3   [8]  00 80 00 01 02 80 00 00
 (000.447725)  can0  1F5   [8]  CA 81 00 00 80 71 E7 6A
 (000.449339)  can0  338   [8]  00 00 00 00 00 00 00 00
 (000.450367)  can0  545   [8]  12 00 00 00 00 01 00 00
 (000.451550)  can0  153   [8]  E4 49 00 FF 00 FF FF 80
 (000.451996)  can0  1F0   [8]  09 40 09 00 09 00 09 00
 (000.453170)  can0  1F3   [8]  00 80 00 01 02 80 00 00
 (000.456920)  can0  1F5   [8]  CA 81 00 00 80 81 00 00
 (000.458091)  can0  338   [8]  00 00 00 00 00 00 00 00
 (000.459707)  can0  329   [8]  40 7B D0 01 00 00 00 00
 (000.460734)  can0  545   [8]  12 00 00 00 00 01 00 00
 (000.464834)  can0  153   [8]  E4 49 00 FF 00 FF FF 80
 (000.466008)  can0  1F0   [8]  09 00 09 00 09 00 09 00
 (000.467620)  can0  1F3   [8]  00 80 00 01 02 80 00 00
 (000.468648)  can0  1F5   [8]  CA 81 00 00 80 91 00 00
 (000.470284)  can0  545   [8]  12 00 00 00 00 01 00 00
 (000.472043)  can0  153   [8]  E4 49 00 FF 00 FF FF 80
 (000.472930)  can0  1F0   [8]  09 20 09 00 09 00 09 00
 (000.474113)  can0  1F3   [8]  00 80 00 01 02 80 00 00
 (000.476026)  can0  1F5   [8]  CA 81 00 00 80 A1 00 00
 (000.477811)  can0  338   [8]  00 00 00 00 00 00 00 00
 (000.478849)  can0  316   [8]  05 00 00 00 91 27 00 AD
 (000.480774)  can0  545   [8]  12 00 00 00 00 01 00 00
 (000.481516)  can0  1F3   [8]  00 80 00 01 02 80 00 00
 (000.483537)  can0  1F5   [8]  CA 81 00 00 80 B1 00 00
 (000.485480)  can0  610   [8]  remote request
 (000.486653)  can0  610   [8]  30 95 60 4B 50 00 00 00
 (000.488265)  can0  1F0   [8]  09 60 09 00 09 00 09 00
 (000.489292)  can0  316   [8]  05 00 00 00 91 27 00 AE
 (000.490471)  can0  545   [8]  12 00 00 00 00 01 00 00
 (000.492804)  can0  153   [8]  E4 49 00 FF 00 FF FF 80
 (000.493973)  can0  1F0   [8]  09 00 09 00 09 00 09 00
 (000.495586)  can0  1F3   [8]  00 80 00 01 02 80 00 00
 (000.496608)  can0  1F5   [8]  CA 81 00 00 80 C1 00 00
 (000.497781)  can0  338   [8]  00 00 00 00 00 00 00 00
 (000.498953)  can0  316   [8]  05 00 00 00 91 27 00 AF
 (000.500565)  can0  545   [8]  12 00 00 00 00 01 00 00
 (000.501587)  can0  153   [8]  E4 49 00 FF 00 FF FF 80
 (000.503529)  can0  1F3   [8]  00 80 00 01 02 80 00 00
 (000.504273)  can0  1F5   [8]  CE 81 10 80 80 D1 00 00
 (000.506804)  can0  153   [8]  E4 49 00 FF 00 FF FF 80
 (000.507966)  can0  1F0   [8]  09 40 09 00 09 00 09 00
 (000.509559)  can0  316   [8]  05 00 00 00 91 27 00 AF
 (000.510581)  can0  545   [8]  12 00 00 00 00 01 00 00
 (000.512484)  can0  1F5   [8]  CA 81 84 01 80 E1 00 00
 (000.513797)  can0  153   [8]  E4 49 00 FF 00 FF FF 80
 (000.514957)  can0  1F0   [8]  09 60 09 00 09 00 09 00
 (000.516554)  can0  1F3   [8]  00 80 00 01 02 80 00 00
 (000.517714)  can0  338   [8]  00 00 00 00 00 00 00 00
 (000.519601)  can0  316   [8]  05 00 00 00 91 27 00 AF
 (000.520332)  can0  545   [8]  12 00 00 00 00 01 00 00
 (000.521056)  can0  1F5   [8]  CA 81 00 00 80 F1 96 04
 (000.522078)  can0  1F0   [8]  09 00 09 00 09 00 09 00
 (000.523691)  can0  1F3   [8]  00 80 00 00 02 80 00 00
 (000.527124)  can0  338   [8]  00 00 00 00 00 00 00 00
 (000.528283)  can0  316   [8]  05 00 00 00 91 27 00 B0
 (000.529877)  can0  153   [8]  E4 49 00 FF 00 FF FF 80
 (000.530898)  can0  545   [8]  12 00 00 00 00 01 00 00
 (000.532063)  can0  1F5   [8]  CA 81 00 00 80 01 00 00
 (000.534810)  can0  153   [8]  E4 49 00 FF 00 FF FF 80
 (000.535977)  can0  1F0   [8]  09 40 09 00 09 00 09 00
 (000.537599)  can0  1F3   [8]  00 80 00 00 02 80 00 00
 (000.538630)  can0  338   [8]  00 00 00 00 00 00 00 00
 (000.540273)  can0  1F5   [8]  CA 81 00 00 80 11 00 00
 (000.542037)  can0  153   [8]  E4 49 00 FF 00 FF FF 80
 (000.542925)  can0  1F0   [8]  09 60 09 00 09 00 09 00
 (000.544110)  can0  1F3   [8]  00 80 00 00 02 80 00 00
 (000.547131)  can0  338   [8]  00 00 00 00 00 00 00 00
 (000.548303)  can0  316   [8]  05 00 00 00 91 27 00 B1
 (000.549924)  can0  545   [8]  12 00 00 00 00 01 00 00
 (000.550956)  can0  1F0   [8]  09 00 09 00 09 00 09 00
 (000.551997)  can0  1F3   [8]  00 80 00 00 02 80 00 00
 (000.555855)  can0  153   [8]  E4 49 00 FF 00 FF FF 80
 (000.557033)  can0  1F0   [8]  09 20 09 00 09 00 09 00
 (000.558653)  can0  1F3   [8]  00 80 00 00 02 80 00 00
 (000.559684)  can0  545   [8]  12 00 00 00 00 01 00 00
 (000.562843)  can0  153   [8]  E4 49 00 FF 00 FF FF 80
 (000.564016)  can0  1F0   [8]  09 40 09 00 09 00 09 00
 (000.565637)  can0  1F3   [8]  00 80 00 00 02 80 00 00
 (000.567555)  can0  1F5   [8]  CA 81 00 00 80 41 00 00
 (000.568741)  can0  338   [8]  00 00 00 00 00 00 00 00
 (000.570382)  can0  545   [8]  12 00 00 00 00 01 00 00
 (000.571411)  can0  153   [8]  E4 49 00 FF 00 FF FF 80
 (000.572594)  can0  1F3   [8]  00 80 00 00 02 80 00 00
 (000.574683)  can0  1F5   [8]  CA 81 00 00 80 51 00 00
 (000.576886)  can0  153   [8]  E4 49 00 FF 00 FF FF 80
 (000.578047)  can0  1F0   [8]  09 00 09 00 09 00 09 00
 (000.579647)  can0  316   [8]  05 00 00 00 91 27 00 B1
 (000.580663)  can0  545   [8]  12 00 00 00 00 01 00 00
 (000.583853)  can0  153   [8]  E4 49 00 FF 00 FF FF 80
 (000.585012)  can0  1F0   [8]  09 20 09 00 09 00 09 00
 (000.586628)  can0  1F3   [8]  00 80 00 00 02 80 00 00
 (000.587658)  can0  1F5   [8]  CA 81 00 00 80 61 00 00
 (000.588700)  can0  316   [8]  05 00 00 00 91 27 00 B2
 (000.589736)  can0  545   [8]  12 00 00 00 00 01 00 00
 (000.591237)  can0  153   [8]  E4 49 00 FF 00 FF FF 80
 (000.592266)  can0  1F0   [8]  09 40 09 00 09 00 09 00
 (000.594179)  can0  1F3   [8]  00 80 00 00 02 80 00 00
 (000.595068)  can0  1F5   [8]  CA 81 00 00 80 71 E7 6A
 (000.597128)  can0  338   [8]  00 00 00 00 00 00 00 00
 (000.598301)  can0  316   [8]  05 00 00 00 91 27 00 B2
 (000.599922)  can0  545   [8]  12 00 00 00 00 01 00 00
 (000.600954)  can0  1F3   [8]  00 80 00 00 02 80 00 00
 (000.602888)  can0  615   [8]  00 00 00 11 03 00 00 00
 (000.604075)  can0  1F5   [8]  CA 81 00 00 80 81 00 00
 (000.605392)  can0  153   [8]  E4 49 00 FF 00 FF FF 80
 (000.606429)  can0  1F0   [8]  09 00 09 00 09 00 09 00
 (000.608214)  can0  1F3   [8]  00 80 00 00 02 80 00 00
 (000.609104)  can0  338   [8]  00 00 00 00 00 00 00 00
 (000.610138)  can0  545   [8]  12 00 00 00 00 01 00 00
 (000.612191)  can0  1F5   [8]  CA 81 00 00 80 91 00 00
 (000.613221)  can0  153   [8]  E4 49 00 FF 00 FF FF 80
 (000.614862)  can0  1F3   [8]  00 80 00 00 02 80 00 00
 (000.617133)  can0  338   [8]  00 00 00 00 00 00 00 00
 (000.618304)  can0  316   [8]  05 00 00 00 91 27 00 B2
 (000.619925)  can0  545   [8]  12 00 00 00 00 01 00 00
 (000.620956)  can0  153   [8]  E4 49 00 FF 00 FF FF 80
 (000.621998)  can0  1F3   [8]  00 80 00 00 02 80 00 00
 (000.623033)  can0  1F5   [8]  CA 81 00 00 80 A1 00 00
 (000.625886)  can0  153   [8]  E4 49 00 FF 00 FF FF 80
 (000.627059)  can0  1F0   [8]  09 60 09 00 09 00 09 00
 (000.628683)  can0  1F3   [8]  00 80 00 00 02 80 00 00
 (000.629714)  can0  545   [8]  12 00 00 00 00 01 00 00
 (000.630756)  can0  1F5   [8]  CE 81 20 80 80 B1 00 00
 (000.633122)  can0  153   [8]  E4 49 00 FF 00 FF FF 80
 (000.634009)  can0  1F0   [8]  09 00 09 00 09 00 09 00
 (000.635195)  can0  1F3   [8]  00 80 00 00 02 80 00 00
 (000.637133)  can0  338   [8]  00 00 00 00 00 00 00 00
 (000.638308)  can0  316   [8]  05 00 00 00 91 27 00 B3
 (000.640072)  can0  545   [8]  12 00 00 00 00 01 00 00
 (000.640960)  can0  1F5   [8]  CA 81 70 01 80 C1 00 00
 (000.642590)  can0  1F3   [8]  00 80 00 00 02 80 00 00
 (000.646912)  can0  153   [8]  E4 49 00 FF 00 FF FF 80
 (000.648085)  can0  1F0   [8]  09 40 09 00 09 00 09 00
 (000.649703)  can0  316   [8]  05 00 00 00 91 27 00 B3
 (000.650732)  can0  545   [8]  12 00 00 00 00 01 00 00
 (000.653897)  can0  153   [8]  E4 49 00 FF 00 FF FF 80
 (000.655071)  can0  1F0   [8]  09 60 09 00 09 00 09 00
 (000.656696)  can0  1F3   [8]  00 80 00 00 02 80 00 00
 (000.657867)  can0  338   [8]  00 00 00 00 00 00 00 00
 (000.659783)  can0  316   [8]  05 00 00 00 91 27 00 B3
 (000.660671)  can0  545   [8]  12 00 00 00 00 01 00 00
 (000.661562)  can0  153   [8]  E4 49 00 FF 00 FF FF 80
 (000.662746)  can0  1F3   [8]  00 80 00 00 02 80 00 00
 (000.665853)  can0  1F5   [8]  CA 81 00 00 80 F1 96 04
 (000.667767)  can0  338   [8]  00 00 00 00 00 00 00 00
 (000.668955)  can0  316   [8]  05 00 00 00 91 27 00 B3
 (000.670595)  can0  1F3   [8]  00 80 00 FF 01 80 00 00
 (000.674921)  can0  153   [8]  E4 49 00 FF 00 FF FF 80
 (000.676100)  can0  1F0   [8]  09 40 09 00 09 00 09 00
 (000.677724)  can0  1F3   [8]  00 80 00 FF 01 80 00 00
 (000.678753)  can0  1F5   [8]  CA 81 00 00 80 01 00 00
 (000.680396)  can0  545   [8]  12 00 00 00 00 01 00 00
 (000.682160)  can0  153   [8]  E4 49 00 FF 00 FF FF 80
 (000.683046)  can0  1F0   [8]  09 60 09 00 09 00 09 00
 (000.684231)  can0  1F3   [8]  00 80 00 FF 01 80 00 00
 (000.685123)  can0  1F5   [8]  CA 81 00 00 80 11 00 00
 (000.687787)  can0  338   [8]  00 00 00 00 00 00 00 00
 (000.688828)  can0  316   [8]  05 00 00 00 91 27 00 B3
 (000.690763)  can0  545   [8]  12 00 00 00 00 01 00 00
 (000.691506)  can0  1F3   [8]  00 80 00 FF 01 80 00 00
 (000.694022)  can0  1F5   [8]  CA 81 00 00 80 21 00 00
 (000.695934)  can0  153   [8]  E4 49 00 FF 00 FF FF 80
 (000.697109)  can0  1F0   [8]  09 20 09 00 09 00 09 00
 (000.698730)  can0  1F3   [8]  00 80 00 FF 01 80 00 00
 (000.699760)  can0  545   [8]  12 00 00 00 00 01 00 00
 (000.702091)  can0  1F5   [8]  CA 81 00 00 80 31 00 00
 (000.703263)  can0  1F0   [8]  09 40 09 00 09 00 09 00
 (000.704437)  can0  153   [8]  E4 49 00 FF 00 FF FF 80
 (000.705176)  can0  1F3   [8]  00 80 00 FF 01 80 00 00
 (000.707121)  can0  338   [8]  00 00 00 00 00 00 00 00
 (000.708293)  can0  316   [8]  05 00 00 00 91 27 00 B4
 (000.709914)  can0  545   [8]  12 00 00 00 00 01 00 00
 (000.710945)  can0  153   [8]  E4 49 00 FF 00 FF FF 80
 (000.711987)  can0  1F3   [8]  00 80 00 FF 01 80 00 00
 (000.712879)  can0  1F5   [8]  CA 81 00 00 80 41 00 00
 (000.716952)  can0  153   [8]  E4 49 00 FF 00 FF FF 80
 (000.718125)  can0  1F0   [8]  09 00 09 00 09 00 09 00
 (000.719746)  can0  316   [8]  05 00 00 00 91 27 00 B4
 (000.720776)  can0  545   [8]  12 00 00 00 00 01 00 00
 (000.721820)  can0  1F5   [8]  CA 81 00 00 80 51 00 00
 (000.724187)  can0  153   [8]  E4 49 00 FF 00 FF FF 80
 (000.725073)  can0  1F0   [8]  09 20 09 00 09 00 09 00
 (000.726266)  can0  1F3   [8]  00 80 00 FF 01 80 00 00
 (000.728183)  can0  338   [8]  00 00 00 00 00 00 00 00
 (000.729074)  can0  316   [8]  05 00 00 00 91 27 00 B4
 (000.730855)  can0  545   [8]  12 00 00 00 00 01 00 00
 (000.731745)  can0  1F5   [8]  CA 81 00 00 80 61 00 00
 (000.732930)  can0  1F3   [8]  00 80 00 FF 01 80 00 00
 (000.737124)  can0  338   [8]  00 00 00 00 00 00 00 00
 (000.738295)  can0  316   [8]  05 00 00 00 91 27 00 B4
 (000.739917)  can0  545   [8]  12 00 00 00 00 01 00 00
 (000.740948)  can0  1F5   [8]  CA 81 00 00 80 71 E7 6A
 (000.744964)  can0  153   [8]  E4 49 00 FF 00 FF FF 80
 (000.746137)  can0  1F0   [8]  09 00 09 00 09 00 09 00
 (000.747758)  can0  1F3   [8]  00 80 00 FF 01 80 00 00
 (000.748787)  can0  338   [8]  00 00 00 00 00 00 00 00
 (000.750427)  can0  545   [8]  12 00 00 00 00 01 00 00
 (000.751459)  can0  1F5   [8]  CA 81 00 00 80 81 00 00
 (000.752645)  can0  153   [8]  E4 49 00 FF 00 FF FF 80
 (000.753832)  can0  1F0   [8]  09 20 09 00 09 00 09 00
 (000.755470)  can0  1F3   [8]  00 80 00 FF 01 80 00 00
 (000.756788)  can0  1F5   [8]  CA 81 00 00 80 91 00 00
 (000.757961)  can0  338   [8]  00 00 00 00 00 00 00 00
 (000.759582)  can0  329   [8]  40 7B D0 01 00 00 00 00
 (000.760612)  can0  545   [8]  12 00 00 00 00 01 00 00
 (000.762264)  can0  1F3   [8]  00 80 00 FF 01 80 00 00
 (000.765969)  can0  153   [8]  E4 49 00 FF 00 FF FF 80
 (000.767142)  can0  1F0   [8]  09 60 09 00 09 00 09 00
 (000.768760)  can0  1F3   [8]  00 80 00 FF 01 80 00 00
 (000.769790)  can0  545   [8]  12 00 00 00 00 01 00 00
 (000.772981)  can0  153   [8]  E4 49 00 FF 00 FF FF 80
 (000.774155)  can0  1F0   [8]  09 00 09 00 09 00 09 00
 (000.775779)  can0  1F3   [8]  00 80 00 FF 01 80 00 00
 (000.776811)  can0  1F5   [8]  CA 81 00 00 80 B1 00 00
 (000.777852)  can0  338   [8]  00 00 00 00 00 00 00 00
 (000.779036)  can0  329   [8]  80 7B D0 01 00 00 00 00
 (000.780676)  can0  545   [8]  12 00 00 00 00 01 00 00
 (000.781709)  can0  153   [8]  E4 49 00 FF 00 FF FF 80
 (000.783643)  can0  1F3   [8]  00 80 00 FF 01 80 00 00
 (000.785044)  can0  1F5   [8]  CA 81 00 00 80 C1 00 00
 (000.786987)  can0  153   [8]  E4 49 00 FF 00 FF FF 80
 (000.788159)  can0  1F0   [8]  09 40 09 00 09 00 09 00
 (000.789779)  can0  316   [8]  05 00 00 00 91 27 00 B4
 (000.790811)  can0  545   [8]  12 00 00 00 00 01 00 00
 (000.793116)  can0  1F5   [8]  CA 81 00 00 80 D1 00 00
 (000.794290)  can0  1F0   [8]  09 60 09 00 09 00 09 00
 (000.795466)  can0  153   [8]  E4 49 00 FF 00 FF FF 80
 (000.796208)  can0  1F3   [8]  00 80 00 FF 01 80 00 00
 (000.798259)  can0  338   [8]  00 00 00 00 00 00 00 00
 (000.798997)  can0  316   [8]  05 00 00 00 91 27 00 B4
 (000.800904)  can0  545   [8]  12 00 00 00 00 01 00 00
 (000.801644)  can0  615   [8]  00 00 00 11 03 00 00 00
 (000.803409)  can0  1F3   [8]  00 80 00 FF 01 80 00 00
 (000.804593)  can0  1F5   [8]  CA 81 00 00 80 E1 00 00
 (000.807177)  can0  338   [8]  00 00 00 00 00 00 00 00
 (000.808347)  can0  316   [8]  05 00 00 00 91 27 00 B4
 (000.809962)  can0  545   [8]  12 00 00 00 00 01 00 00
 (000.810991)  can0  1F3   [8]  00 80 00 FF 01 80 00 00
 (000.812031)  can0  1F5   [8]  CA 81 00 00 80 F1 96 04
 (000.814996)  can0  153   [8]  E4 49 00 FF 00 FF FF 80
 (000.816168)  can0  1F0   [8]  09 40 09 00 09 00 09 00
 (000.817785)  can0  1F3   [8]  00 80 00 FF 01 80 00 00
 (000.818815)  can0  338   [8]  00 00 00 00 00 00 00 00
 (000.820449)  can0  545   [8]  12 00 00 00 00 01 00 00
 (000.822359)  can0  1F5   [8]  CA 81 00 00 80 01 00 00
 (000.823542)  can0  153   [8]  E4 49 00 FF 00 FF FF 80
 (000.825179)  can0  1F3   [8]  00 80 00 FF 01 80 00 00
 (000.827118)  can0  338   [8]  00 00 00 00 00 00 00 00
 (000.828313)  can0  316   [8]  05 00 00 00 91 27 00 B4
 (000.829945)  can0  545   [8]  12 00 00 00 00 01 00 00
 (000.830987)  can0  153   [8]  E4 49 00 FF 00 FF FF 80
 (000.832172)  can0  1F5   [8]  CA 81 00 00 80 11 00 00
 (000.836015)  can0  153   [8]  E4 49 00 FF 00 FF FF 80
 (000.837203)  can0  1F0   [8]  09 20 09 00 09 00 09 00
 (000.838828)  can0  1F3   [8]  00 80 00 FF 01 80 00 00
 (000.839872)  can0  545   [8]  12 00 00 00 00 01 00 00
 (000.840916)  can0  1F5   [8]  CA 81 00 00 80 21 00 00
 (000.843352)  can0  153   [8]  E4 49 00 FF 00 FF FF 80
 (000.844397)  can0  1F0   [8]  09 40 09 00 09 00 09 00
 (000.846343)  can0  1F3   [8]  00 80 00 FF 01 80 00 00
 (000.847379)  can0  338   [8]  00 00 00 00 00 00 00 00
 (000.848142)  can0  316   [8]  05 00 00 00 91 27 00 B4
 (000.849185)  can0  545   [8]  12 00 00 00 00 01 00 00
 (000.850969)  can0  153   [8]  E4 49 00 FF 00 FF FF 80
 (000.851868)  can0  1F0   [8]  09 60 09 00 09 00 09 00
 (000.852912)  can0  1F3   [8]  00 80 00 FF 01 80 00 00
 (000.857031)  can0  153   [8]  E4 49 00 FF 00 FF FF 80
 (000.858215)  can0  1F0   [8]  09 00 09 00 09 00 09 00
 (000.859843)  can0  316   [8]  05 00 00 00 91 27 00 B4
 (000.860887)  can0  545   [8]  12 00 00 00 00 01 00 00
 (000.864021)  can0  153   [8]  E4 49 00 FF 00 FF FF 80
 (000.865207)  can0  1F0   [8]  09 20 09 00 09 00 09 00
 (000.866841)  can0  1F3   [8]  00 80 00 FF 01 80 00 00
 (000.867887)  can0  1F5   [8]  CA 81 00 00 80 51 00 00
 (000.868929)  can0  329   [8]  D1 7B D0 01 00 00 00 00
 (000.869374)  can0  545   [8]  12 00 00 00 00 01 00 00
 (000.871146)  can0  153   [8]  E4 49 00 FF 00 FF FF 80
 (000.872333)  can0  1F0   [8]  09 40 09 00 09 00 09 00
 (000.874103)  can0  1F3   [8]  00 80 00 FF 01 80 00 00
 (000.876175)  can0  1F5   [8]  CA 81 00 00 80 61 00 00
 (000.877381)  can0  316   [8]  05 00 00 00 91 27 00 B4
 (000.878570)  can0  338   [8]  00 00 00 00 00 00 00 00
 (000.879323)  can0  153   [8]  E4 49 00 FF 00 FF FF 80
 (000.881257)  can0  1F3   [8]  00 80 00 FF 01 80 00 00
 (000.884238)  can0  1F5   [8]  CA 81 00 00 80 71 E7 6A
 (000.885420)  can0  1F0   [8]  09 00 09 00 09 00 09 00
 (000.887055)  can0  153   [8]  E4 49 00 FF 00 FF FF 80
 (000.887500)  can0  1F3   [8]  00 80 00 FF 01 80 00 00
 (000.889289)  can0  329   [8]  D1 7B D0 01 00 00 00 00
 (000.889734)  can0  545   [8]  12 00 00 00 00 01 00 00
 (000.892039)  can0  153   [8]  E4 49 00 FF 00 FF FF 80
 (000.893225)  can0  1F0   [8]  09 20 09 00 09 00 09 00
 (000.894852)  can0  1F3   [8]  00 80 00 FF 01 80 00 00
 (000.895901)  can0  1F5   [8]  CA 81 00 00 80 81 00 00
 (000.897087)  can0  338   [8]  00 00 00 00 00 00 00 00
 (000.898273)  can0  316   [8]  05 00 00 00 91 27 00 B4
 (000.899900)  can0  545   [8]  12 00 00 00 00 01 00 00
 (000.900943)  can0  153   [8]  E4 49 00 FF 00 FF FF 80
 (000.902129)  can0  1F3   [8]  00 80 00 FF 01 80 00 00
 (000.903313)  can0  1F5   [8]  CA 81 00 00 80 91 00 00
 (000.906040)  can0  153   [8]  E4 49 00 FF 00 FF FF 80
 (000.907229)  can0  1F0   [8]  09 60 09 00 09 00 09 00
 (000.908856)  can0  1F3   [8]  00 80 00 FF 01 80 00 00
 (000.909900)  can0  545   [8]  12 00 00 00 00 01 00 00
 (000.912320)  can0  1F5   [8]  CA 81 00 00 80 A1 00 00
 (000.913504)  can0  1F0   [8]  09 00 09 00 09 00 09 00
 (000.915275)  can0  153   [8]  E4 49 00 FF 00 FF FF 80
 (000.916325)  can0  1F3   [8]  00 80 00 FF 01 80 00 08
 (000.917360)  can0  338   [8]  00 00 00 00 00 00 00 00
 (000.918259)  can0  316   [8]  05 00 00 00 91 27 00 B5
 (000.919447)  can0  545   [8]  12 00 00 00 00 01 00 00
 (000.921359)  can0  153   [8]  E4 49 00 FF 00 FF FF 80
 (000.922258)  can0  1F0   [8]  09 20 09 00 09 00 09 00
 (000.924042)  can0  1F5   [8]  CA 81 00 00 80 B1 00 00
 (000.927064)  can0  153   [8]  E4 49 00 FF 00 FF FF 80
 (000.928249)  can0  1F0   [8]  09 40 09 00 09 00 09 00
 (000.929877)  can0  316   [8]  05 00 00 00 91 27 00 B5
 (000.930922)  can0  545   [8]  12 00 00 00 00 01 00 00
 (000.931964)  can0  1F5   [8]  CA 81 00 00 80 C1 00 00
 (000.934187)  can0  153   [8]  E4 49 00 FF 00 FF FF 80
 (000.935371)  can0  1F0   [8]  09 60 09 00 09 00 09 00
 (000.937000)  can0  1F3   [8]  00 80 00 FF 01 80 00 08
 (000.938185)  can0  338   [8]  00 00 00 00 00 00 00 00
 (000.939813)  can0  329   [8]  11 7B D0 01 00 00 00 00
 (000.940855)  can0  545   [8]  12 00 00 00 00 01 00 00
 (000.941899)  can0  1F5   [8]  CA 81 00 00 80 D1 00 00
 (000.943087)  can0  1F3   [8]  00 80 00 FF 01 80 00 08
 (000.947112)  can0  338   [8]  00 00 00 00 00 00 00 00
 (000.948294)  can0  316   [8]  05 00 00 00 91 27 00 B5
 (000.949922)  can0  545   [8]  12 00 00 00 00 01 00 00
 (000.950966)  can0  1F5   [8]  CA 81 00 00 80 E1 00 00
 (000.955075)  can0  153   [8]  E4 49 00 FF 00 FF FF 80
 (000.956265)  can0  1F0   [8]  09 40 09 00 09 00 09 00
 (000.957894)  can0  1F3   [8]  00 80 00 FF 01 80 00 08
 (000.958938)  can0  338   [8]  00 00 00 00 00 00 00 00
 (000.960578)  can0  545   [8]  12 00 00 00 00 01 00 00
 (000.962359)  can0  153   [8]  E4 49 00 FF 00 FF FF 80
 (000.963404)  can0  1F0   [8]  09 60 09 00 09 00 09 00
 (000.965338)  can0  1F3   [8]  00 80 00 FF 01 80 00 08
 (000.967104)  can0  338   [8]  00 00 00 00 00 00 00 00
 (000.968288)  can0  1F5   [8]  CA 81 00 00 80 01 00 00
 (000.969915)  can0  329   [8]  11 7C D0 01 00 00 00 00
 (000.970960)  can0  153   [8]  E4 49 00 FF 00 FF FF 80
 (000.972143)  can0  1F3   [8]  00 80 00 FF 01 80 00 08
 (000.975290)  can0  1F5   [8]  CA 81 00 00 80 11 00 00
 (000.976481)  can0  1F0   [8]  09 20 09 00 09 00 09 00
 (000.978135)  can0  153   [8]  E4 49 00 FF 00 FF FF 80
 (000.978582)  can0  338   [8]  00 00 00 00 00 00 00 00
 (000.980373)  can0  545   [8]  12 00 00 00 00 01 00 00
 (000.983097)  can0  153   [8]  E4 49 00 FF 00 FF FF 80
 (000.984281)  can0  1F0   [8]  09 40 09 00 09 00 09 00
 (000.985912)  can0  1F3   [8]  00 80 00 FF 01 80 00 08
 (000.986958)  can0  1F5   [8]  CA 81 00 00 80 21 00 00
 (000.988000)  can0  338   [8]  00 00 00 00 00 00 00 00
 (000.988445)  can0  329   [8]  40 7C D0 01 00 00 00 00
 (000.990368)  can0  545   [8]  12 00 00 00 00 01 00 00
 (000.991117)  can0  153   [8]  E4 49 00 FF 00 FF FF 80
 (000.993050)  can0  1F3   [8]  00 80 00 FF 01 80 00 08
 (000.994237)  can0  1F5   [8]  CA 81 00 00 80 31 00 00
 (000.997106)  can0  338   [8]  00 00 00 00 00 00 00 00
 (000.998287)  can0  153   [8]  E4 49 00 FF 00 FF FF 80
 (001.000094)  can0  1F3   [8]  00 80 00 FF 01 80 00 08
 (001.000994)  can0  545   [8]  12 00 00 00 00 01 00 00
 (001.002041)  can0  615   [8]  00 00 00 11 03 00 00 00
 (001.003837)  can0  1F5   [8]  CA 81 00 00 80 41 00 00
 (001.005027)  can0  153   [8]  E4 49 00 FF 00 FF FF 80
 (001.006820)  can0  1F3   [8]  00 80 00 FF 01 80 00 08
 (001.007850)  can0  338   [8]  00 00 00 00 00 00 00 00
 (001.009750)  can0  329   [8]  40 7C D0 01 00 00 00 00
 (001.010494)  can0  545   [8]  12 00 00 00 00 01 00 00
 (001.011669)  can0  153   [8]  E4 49 00 FF 00 FF FF 80
 (001.012845)  can0  1F0   [8]  09 40 09 00 09 00 09 00
 (001.014605)  can0  1F5   [8]  CA 81 00 00 80 51 00 00
 (001.017111)  can0  338   [8]  00 00 00 00 00 00 00 00
 (001.018296)  can0  316   [8]  05 00 00 00 91 27 00 B5
 (001.019924)  can0  545   [8]  12 00 00 00 00 01 00 00
 (001.020968)  can0  1F3   [8]  00 80 00 FF 01 80 00 08
 (001.022153)  can0  1F5   [8]  CA 81 00 00 80 61 00 00
 (001.025129)  can0  153   [8]  E4 49 00 FF 00 FF FF 80
 (001.026316)  can0  1F0   [8]  09 00 09 00 09 00 09 00
 (001.027947)  can0  1F3   [8]  00 80 00 FF 01 80 00 08
 (001.028990)  can0  338   [8]  00 00 00 00 00 00 00 00
 (001.030487)  can0  545   [8]  12 00 00 00 00 01 00 00
 (001.030932)  can0  1F5   [8]  CA 81 00 00 80 71 E7 6A
 (001.032120)  can0  153   [8]  E4 49 00 FF 00 FF FF 80
 (001.033161)  can0  1F0   [8]  09 20 09 00 09 00 09 00
 (001.034788)  can0  1F3   [8]  00 80 00 FF 01 80 00 08
 (001.037103)  can0  338   [8]  00 00 00 00 00 00 00 00
 (001.038287)  can0  316   [8]  05 00 00 00 91 27 00 B5
 (001.039914)  can0  545   [8]  12 00 00 00 00 01 00 00
 (001.040960)  can0  153   [8]  E4 49 00 FF 00 FF FF 80
 (001.042599)  can0  1F5   [8]  CA 81 00 00 80 81 00 00
 (001.046130)  can0  153   [8]  E4 49 00 FF 00 FF FF 80
 (001.047313)  can0  1F0   [8]  09 60 09 00 09 00 09 00
 (001.048941)  can0  1F3   [8]  00 80 00 FF 01 80 00 08
 (001.049985)  can0  545   [8]  12 00 00 00 00 01 00 00
 (001.051028)  can0  1F5   [8]  CA 81 00 00 80 91 00 00
 (001.053144)  can0  153   [8]  E4 49 00 FF 00 FF FF 80
 (001.054329)  can0  1F0   [8]  09 00 09 00 09 00 09 00
 (001.055961)  can0  1F3   [8]  00 80 00 FF 01 80 00 08
 (001.057887)  can0  338   [8]  00 00 00 00 00 00 00 00
 (001.058332)  can0  316   [8]  05 00 00 00 91 27 00 B5
 (001.059519)  can0  1F5   [8]  CA 81 00 00 80 A1 00 00
 (001.060560)  can0  1F0   [8]  09 20 09 00 09 00 09 00
 (001.062331)  can0  153   [8]  E4 49 00 FF 00 FF FF 80
 (001.063227)  can0  1F3   [8]  00 80 00 FF 01 80 00 08
 (001.066356)  can0  1F5   [8]  CA 81 00 00 80 B1 00 00
 (001.067540)  can0  153   [8]  E4 49 00 FF 00 FF FF 80
 (001.069314)  can0  338   [8]  00 00 00 00 00 00 00 00
 (001.070358)  can0  329   [8]  84 7C D0 01 00 00 00 00
 (001.071400)  can0  545   [8]  12 00 00 00 00 01 00 00
 (001.074135)  can0  153   [8]  E4 49 00 FF 00 FF FF 80
 (001.075320)  can0  1F0   [8]  09 60 09 00 09 00 09 00
 (001.076953)  can0  1F3   [8]  00 80 00 FF 01 80 00 08
 (001.077995)  can0  1F5   [8]  CA 81 00 00 80 C1 00 00
 (001.079037)  can0  329   [8]  84 7C D0 01 00 00 00 00
 (001.079482)  can0  545   [8]  12 00 00 00 00 01 00 00
 (001.081251)  can0  153   [8]  E4 49 00 FF 00 FF FF 80
 (001.082433)  can0  1F0   [8]  09 00 09 00 09 00 09 00
 (001.084204)  can0  1F3   [8]  00 80 00 FF 01 80 00 08
 (001.085244)  can0  1F5   [8]  CA 81 00 00 80 D1 00 00
 (001.087100)  can0  338   [8]  00 00 00 00 00 00 00 00
 (001.088285)  can0  316   [8]  05 00 00 00 91 27 00 B5
 (001.089914)  can0  545   [8]  12 00 00 00 00 01 00 00
 (001.090960)  can0  1F3   [8]  00 80 00 FF 01 80 00 08
 (001.094425)  can0  1F5   [8]  CA 81 00 00 80 E1 00 00
 (001.095611)  can0  1F0   [8]  09 40 09 00 09 00 09 00
 (001.097383)  can0  153   [8]  E4 49 00 FF 00 FF FF 80
 (001.098426)  can0  1F3   [8]  00 80 00 FF 01 80 00 08
 (001.100065)  can0  545   [8]  12 00 00 00 00 01 00 00
 (001.102158)  can0  153   [8]  E4 49 00 FF 00 FF FF 80
 (001.103342)  can0  1F0   [8]  09 60 09 00 09 00 09 00
 (001.104965)  can0  1F3   [8]  00 80 00 FF 01 80 00 08
 (001.106011)  can0  1F5   [8]  CA 81 00 00 80 F1 96 04
 (001.107100)  can0  338   [8]  00 00 00 00 00 00 00 00
 (001.108286)  can0  316   [8]  05 00 00 00 91 27 00 B5
 (001.109914)  can0  545   [8]  12 00 00 00 00 01 00 00
 (001.110957)  can0  153   [8]  E4 49 00 FF 00 FF FF 80
 (001.112890)  can0  1F3   [8]  00 80 00 FF 01 80 00 08
 (001.114078)  can0  1F5   [8]  CA 81 00 00 80 01 00 00
 (001.116175)  can0  153   [8]  E4 49 00 FF 00 FF FF 80
 (001.117362)  can0  1F0   [8]  09 20 09 00 09 00 09 00
 (001.118991)  can0  1F3   [8]  00 80 00 FF 01 80 00 08
 (001.120033)  can0  545   [8]  12 00 00 00 00 01 00 00
 (001.121218)  can0  1F5   [8]  CA 81 00 00 80 11 00 00
 (001.123178)  can0  153   [8]  E4 49 00 FF 00 FF FF 80
 (001.124362)  can0  1F0   [8]  09 40 09 00 09 00 09 00
 (001.125992)  can0  1F3   [8]  00 80 00 FF 01 80 00 08
 (001.127919)  can0  338   [8]  00 00 00 00 00 00 00 00
 (001.128364)  can0  316   [8]  05 00 00 00 91 27 00 B5
 (001.129257)  can0  545   [8]  12 00 00 00 00 01 00 00
 (001.131500)  can0  153   [8]  E4 49 00 FF 00 FF FF 80
 (001.131945)  can0  1F0   [8]  09 60 09 00 09 00 09 00
 (001.133721)  can0  1F5   [8]  CA 81 00 00 80 21 00 00
 (001.137104)  can0  338   [8]  00 00 00 00 00 00 00 00
 (001.138290)  can0  153   [8]  E4 49 00 FF 00 FF FF 80
 (001.139920)  can0  1F3   [8]  00 80 00 FF 01 80 00 08
 (001.140963)  can0  545   [8]  12 00 00 00 00 01 00 00
 (001.142007)  can0  1F5   [8]  CA 81 00 00 80 31 00 00
 (001.144188)  can0  153   [8]  E4 49 00 FF 00 FF FF 80
 (001.145372)  can0  1F0   [8]  09 20 09 00 09 00 09 00
 (001.147003)  can0  1F3   [8]  00 80 00 FF 01 80 00 08
 (001.148188)  can0  338   [8]  00 00 00 00 00 00 00 00
 (001.149815)  can0  545   [8]  12 00 00 00 00 01 00 00
 (001.150857)  can0  1F5   [8]  CA 81 00 00 80 41 00 00
 (001.151900)  can0  153   [8]  E4 49 00 FF 00 FF FF 80
 (001.152345)  can0  1F0   [8]  09 40 09 00 09 00 09 00
 (001.154269)  can0  1F3   [8]  00 80 00 FF 01 80 00 08
 (001.157099)  can0  338   [8]  00 00 00 00 00 00 00 00
 (001.158280)  can0  1F5   [8]  CA 81 00 00 80 51 00 00
 (001.159903)  can0  329   [8]  D1 7C D0 01 00 00 00 00
 (001.160945)  can0  1F3   [8]  00 80 00 FF 01 80 00 08
 (001.165217)  can0  153   [8]  E4 49 00 FF 00 FF FF 80
 (001.166413)  can0  1F0   [8]  09 00 09 00 09 00 09 00
 (001.168046)  can0  1F3   [8]  00 80 00 FF 01 80 00 08
 (001.169093)  can0  338   [8]  00 00 00 00 00 00 00 00
 (001.170742)  can0  545   [8]  12 00 00 00 00 01 00 00
 (001.172506)  can0  153   [8]  E4 49 00 FF 00 FF FF 80
 (001.173539)  can0  1F0   [8]  09 20 09 00 09 00 09 00
 (001.175456)  can0  1F3   [8]  00 80 00 FF 01 80 00 08
 (001.176644)  can0  1F5   [8]  CA 81 00 00 80 71 E7 6A
 (001.177559)  can0  338   [8]  00 00 00 00 00 00 00 00
 (001.178748)  can0  316   [8]  05 00 00 00 91 27 00 B5
 (001.180392)  can0  545   [8]  12 00 00 00 00 01 00 00
 (001.180839)  can0  1F0   [8]  09 40 09 00 09 00 09 00
 (001.182636)  can0  1F3   [8]  00 80 00 FF 01 80 00 08
 (001.185417)  can0  1F5   [8]  CA 81 00 00 80 81 00 00
 (001.186607)  can0  1F0   [8]  09 60 09 00 09 00 09 00
 (001.188244)  can0  153   [8]  E4 49 00 FF 00 FF FF 80
 (001.188690)  can0  316   [8]  05 00 00 00 91 27 00 B5
 (001.190489)  can0  545   [8]  12 00 00 00 00 01 00 00
 (001.193227)  can0  153   [8]  E4 49 00 FF 00 FF FF 80
 (001.194414)  can0  1F0   [8]  09 00 09 00 09 00 09 00
 (001.196051)  can0  1F3   [8]  00 80 00 FF 01 80 00 08
 (001.197098)  can0  1F5   [8]  CA 81 00 00 80 91 00 00
 (001.198289)  can0  338   [8]  00 00 00 00 00 00 00 00
 (001.199186)  can0  545   [8]  12 00 00 00 00 01 00 00
 (001.201125)  can0  613   [8]  87 7E 09 DD 2C 00 00 00
 (001.201571)  can0  615   [8]  00 00 00 11 03 00 00 00
 (001.203350)  can0  1F3   [8]  00 80 00 FF 01 80 00 08
 (001.204840)  can0  1F5   [8]  CA 81 00 00 80 A1 00 00
 (001.207103)  can0  338   [8]  00 00 00 00 00 00 00 00
 (001.208291)  can0  153   [8]  E4 49 00 FF 00 FF FF 80
 (001.209924)  can0  1F3   [8]  00 80 00 FF 01 80 00 08
 (001.210970)  can0  545   [8]  12 00 00 00 00 01 00 00
 (001.212159)  can0  1F5   [8]  CA 81 00 00 80 B1 00 00
 (001.214223)  can0  153   [8]  E4 49 00 FF 00 FF FF 80
 (001.215413)  can0  1F0   [8]  09 60 09 00 09 00 09 00
 (001.217039)  can0  1F3   [8]  00 80 00 FF 01 80 00 08
 (001.218073)  can0  338   [8]  00 00 00 00 00 00 00 00
 (001.219110)  can0  545   [8]  12 00 00 00 00 01 00 00
 (001.221443)  can0  153   [8]  E4 49 00 FF 00 FF FF 80
 (001.222335)  can0  1F0   [8]  09 00 09 00 09 00 09 00
 (001.223511)  can0  1F5   [8]  CA 81 00 00 80 C1 00 00
 (001.227097)  can0  338   [8]  00 00 00 00 00 00 00 00
 (001.228279)  can0  316   [8]  05 00 00 00 91 27 00 B5
 (001.229902)  can0  545   [8]  12 00 00 00 00 01 00 00
 (001.230941)  can0  1F3   [8]  00 80 00 FF 01 80 00 08
 (001.231986)  can0  1F5   [8]  CA 81 00 00 80 D1 00 00
 (001.235245)  can0  153   [8]  E4 49 00 FF 00 FF FF 80
 (001.236441)  can0  1F0   [8]  09 40 09 00 09 00 09 00
 (001.238076)  can0  1F3   [8]  00 80 00 FF 01 80 00 08
 (001.239120)  can0  338   [8]  00 00 00 00 00 00 00 00
 (001.241058)  can0  545   [8]  12 00 00 00 00 01 00 00
 (001.241504)  can0  1F5   [8]  CA 81 00 00 80 E1 00 00
 (001.242549)  can0  153   [8]  E4 49 00 FF 00 FF FF 80
 (001.243596)  can0  1F0   [8]  09 60 09 00 09 00 09 00
 (001.244642)  can0  1F3   [8]  00 80 00 FF 01 80 00 08
 (001.247096)  can0  338   [8]  00 00 00 00 00 00 00 00
 (001.248283)  can0  316   [8]  05 00 00 00 91 27 00 B5
 (001.249918)  can0  545   [8]  12 00 00 00 00 01 00 00
 (001.250964)  can0  1F5   [8]  CA 81 00 00 80 F1 96 04
 (001.252904)  can0  1F3   [8]  00 80 00 FF 01 80 00 08
 (001.256260)  can0  153   [8]  E4 49 00 FF 00 FF FF 80
 (001.257447)  can0  1F0   [8]  09 20 09 00 09 00 09 00
 (001.259078)  can0  1F3   [8]  00 80 00 FF 01 80 00 08
 (001.260124)  can0  545   [8]  12 00 00 00 00 01 00 00
 (001.261169)  can0  1F5   [8]  CA 81 00 00 80 01 00 00
 (001.263260)  can0  153   [8]  E4 49 00 FF 00 FF FF 80
 (001.264445)  can0  1F0   [8]  09 40 09 00 09 00 09 00
 (001.266103)  can0  1F3   [8]  00 80 00 FF 01 80 00 08
 (001.267293)  can0  1F5   [8]  CA 81 00 00 80 11 00 00
 (001.269224)  can0  338   [8]  00 00 00 00 00 00 00 00
 (001.270125)  can0  545   [8]  12 00 00 00 00 01 00 00
 (001.271025)  can0  153   [8]  E4 49 00 FF 00 FF FF 80
 (001.271471)  can0  1F3   [8]  00 80 00 FF 01 80 00 08
 (001.276490)  can0  1F5   [8]  CA 81 00 00 80 21 00 00
 (001.277693)  can0  153   [8]  E4 49 00 FF 00 FF FF 80
 (001.279623)  can0  338   [8]  00 00 00 00 00 00 00 00
 (001.280524)  can0  329   [8]  40 7C D0 01 00 00 00 00
 (001.281424)  can0  545   [8]  12 00 00 00 00 01 00 00
 (001.284269)  can0  153   [8]  E4 49 00 FF 00 FF FF 80
 (001.285458)  can0  1F0   [8]  09 20 09 00 09 00 09 00
 (001.287100)  can0  1F3   [8]  00 80 00 FF 01 80 00 08
 (001.288146)  can0  1F5   [8]  CA 81 00 00 80 31 00 00
 (001.289794)  can0  545   [8]  12 00 00 00 00 01 00 00
 (001.291583)  can0  153   [8]  E4 49 00 FF 00 FF FF 80
 (001.292628)  can0  1F0   [8]  09 40 09 00 09 00 09 00
 (001.294570)  can0  1F3   [8]  00 80 00 FF 01 80 00 08
 (001.295468)  can0  1F5   [8]  CA 81 00 00 80 41 00 00
 (001.297294)  can0  338   [8]  00 00 00 00 00 00 00 00
 (001.298341)  can0  316   [8]  05 00 00 00 91 27 00 B5
 (001.299239)  can0  545   [8]  12 00 00 00 00 01 00 00
 (001.299686)  can0  1F3   [8]  00 80 00 FF 01 80 00 08
 (001.303111)  can0  1F5   [8]  CA 81 00 00 80 51 00 00
 (001.305289)  can0  153   [8]  E4 49 00 FF 00 FF FF 80
 (001.306485)  can0  1F0   [8]  09 00 09 00 09 00 09 00
 (001.308122)  can0  1F3   [8]  00 80 00 FF 01 80 00 08
 (001.309167)  can0  338   [8]  00 00 00 00 00 00 00 00
 (001.310356)  can0  545   [8]  12 00 00 00 00 01 00 00
 (001.312285)  can0  153   [8]  E4 49 00 FF 00 FF FF 80
 (001.313472)  can0  1F0   [8]  09 20 09 00 09 00 09 00
 (001.315106)  can0  1F3   [8]  00 80 00 FF 01 80 00 08
 (001.316158)  can0  1F5   [8]  CA 81 00 00 80 61 00 00
 (001.317632)  can0  338   [8]  00 00 00 00 00 00 00 00
 (001.318678)  can0  316   [8]  05 00 00 00 91 27 00 B5
 (001.320466)  can0  545   [8]  12 00 00 00 00 01 00 00
 (001.320913)  can0  153   [8]  E4 49 00 FF 00 FF FF 80
 (001.322419)  can0  1F3   [8]  00 80 00 FF 01 80 00 08
 (001.322864)  can0  1F5   [8]  CA 81 00 00 80 71 E7 6A
 (001.326289)  can0  153   [8]  E4 49 00 FF 00 FF FF 80
 (001.327477)  can0  1F0   [8]  09 60 09 00 09 00 09 00
 (001.329109)  can0  338   [8]  00 00 00 00 00 00 00 00
 (001.330155)  can0  545   [8]  12 00 00 00 00 01 00 00
 (001.331345)  can0  1F5   [8]  CA 81 00 00 80 81 00 00
 (001.333306)  can0  153   [8]  E4 49 00 FF 00 FF FF 80
 (001.334495)  can0  1F0   [8]  09 00 09 00 09 00 09 00
 (001.336134)  can0  1F3   [8]  00 80 00 FF 01 80 00 08
 (001.337321)  can0  316   [8]  05 00 00 00 91 27 00 B5
 (001.338507)  can0  338   [8]  00 00 00 00 00 00 00 00
 (001.339258)  can0  545   [8]  12 00 00 00 00 01 00 00
 (001.341200)  can0  1F5   [8]  CA 81 00 00 80 91 00 00
 (001.341646)  can0  153   [8]  E4 49 00 FF 00 FF FF 80
 (001.343426)  can0  1F3   [8]  00 80 00 FF 01 80 00 08
 (001.347095)  can0  338   [8]  00 00 00 00 00 00 00 00
 (001.348284)  can0  153   [8]  E4 49 00 FF 00 FF FF 80
 (001.349922)  can0  1F3   [8]  00 80 00 FF 01 80 00 08
 (001.350969)  can0  545   [8]  12 00 00 00 00 01 00 00
 (001.352016)  can0  1F5   [8]  CA 81 00 00 80 A1 00 00
 (001.354302)  can0  153   [8]  E4 49 00 FF 00 FF FF 80
 (001.355489)  can0  1F0   [8]  09 60 09 00 09 00 09 00
 (001.357129)  can0  1F3   [8]  00 80 00 FF 01 80 00 08
 (001.358175)  can0  338   [8]  00 00 00 00 00 00 00 00
 (001.359221)  can0  329   [8]  84 7C D0 01 00 00 00 00
 (001.359667)  can0  545   [8]  12 00 00 00 00 01 00 00
 (001.361447)  can0  153   [8]  E4 49 00 FF 00 FF FF 80
 (001.362635)  can0  1F0   [8]  09 00 09 00 09 00 09 00
 (001.364412)  can0  1F3   [8]  00 80 00 FF 01 80 00 08
 (001.367099)  can0  338   [8]  00 00 00 00 00 00 00 00
 (001.368288)  can0  316   [8]  05 00 00 00 91 27 00 B5
 (001.369920)  can0  329   [8]  84 7C D0 01 00 00 00 00
 (001.370967)  can0  1F3   [8]  00 80 00 FF 01 80 00 08
 (001.375321)  can0  153   [8]  E4 49 00 FF 00 FF FF 80
 (001.376515)  can0  1F0   [8]  09 40 09 00 09 00 09 00
 (001.378146)  can0  1F3   [8]  00 80 00 FF 01 80 00 08
 (001.379177)  can0  316   [8]  05 00 00 00 91 27 00 B5
 (001.380359)  can0  545   [8]  12 00 00 00 00 01 00 00
 (001.382896)  can0  153   [8]  E4 49 00 FF 00 FF FF 80
 (001.383928)  can0  1F0   [8]  09 60 09 00 09 00 09 00
 (001.385686)  can0  1F3   [8]  00 80 00 FF 01 80 00 08
 (001.386584)  can0  1F5   [8]  CA 81 00 00 80 E1 00 00
 (001.387615)  can0  338   [8]  00 00 00 00 00 00 00 00
 (001.388649)  can0  316   [8]  05 00 00 00 91 27 00 B5
 (001.390435)  can0  545   [8]  12 00 00 00 00 01 00 00
 (001.390880)  can0  153   [8]  E4 49 00 FF 00 FF FF 80
 (001.392370)  can0  1F3   [8]  00 80 00 FF 01 80 00 08
 (001.394200)  can0  1F5   [8]  CA 81 00 00 80 F1 96 04
 (001.396338)  can0  153   [8]  E4 49 00 FF 00 FF FF 80
 (001.397513)  can0  1F0   [8]  09 20 09 00 09 00 09 00
 (001.399136)  can0  338   [8]  00 00 00 00 00 00 00 00
 (001.400166)  can0  545   [8]  12 00 00 00 00 01 00 00
 (001.401208)  can0  615   [8]  00 00 00 11 03 00 00 00
 (001.403576)  can0  153   [8]  E4 49 00 FF 00 FF FF 80
 (001.404463)  can0  1F0   [8]  09 40 09 00 09 00 09 00
 (001.405679)  can0  1F5   [8]  CA 81 00 00 80 01 00 00
 (001.407599)  can0  338   [8]  00 00 00 00 00 00 00 00
 (001.408492)  can0  316   [8]  05 00 00 00 91 27 00 B5
 (001.410277)  can0  545   [8]  12 00 00 00 00 01 00 00
 (001.411170)  can0  153   [8]  E4 49 00 FF 00 FF FF 80
 (001.412940)  can0  1F3   [8]  00 80 00 FF 01 80 00 08
 (001.413692)  can0  1F5   [8]  CA 81 00 00 80 11 00 00
 (001.417093)  can0  338   [8]  00 00 00 00 00 00 00 00
 (001.418266)  can0  316   [8]  05 00 00 00 91 27 00 B5
 (001.419889)  can0  1F0   [8]  09 00 09 00 09 00 09 00
 (001.420920)  can0  545   [8]  12 00 00 00 00 01 00 00
 (001.422432)  can0  1F5   [8]  CA 81 00 00 80 21 00 00
 (001.424344)  can0  153   [8]  E4 49 00 FF 00 FF FF 80
 (001.425517)  can0  1F0   [8]  09 20 09 00 09 00 09 00
 (001.427144)  can0  1F3   [8]  00 80 00 FF 01 80 00 08
 (001.428174)  can0  338   [8]  00 00 00 00 00 00 00 00
 (001.429216)  can0  545   [8]  12 00 00 00 00 01 00 00
 (001.431130)  can0  1F5   [8]  CA 81 00 00 80 31 00 00
 (001.432162)  can0  153   [8]  E4 49 00 FF 00 FF FF 80
 (001.434077)  can0  1F3   [8]  00 80 00 FF 01 80 00 08
 (001.437086)  can0  338   [8]  00 00 00 00 00 00 00 00
 (001.438259)  can0  316   [8]  05 00 00 00 91 27 00 B5
 (001.439881)  can0  545   [8]  12 00 00 00 00 01 00 00
 (001.440912)  can0  1F3   [8]  00 80 00 FF 01 80 00 08
 (001.441955)  can0  1F5   [8]  CA 81 00 00 80 41 00 00
 (001.445371)  can0  153   [8]  E4 49 00 FF 00 FF FF 80
 (001.446550)  can0  1F0   [8]  09 00 09 00 09 00 09 00
 (001.448175)  can0  1F3   [8]  00 80 00 FF 01 80 00 08
 (001.449210)  can0  316   [8]  05 00 00 00 91 27 00 B5
 (001.450377)  can0  1F5   [8]  CA 81 00 00 80 51 00 00
 (001.452557)  can0  153   [8]  E4 49 00 FF 00 FF FF 80
 (001.453436)  can0  1F0   [8]  09 20 09 00 09 00 09 00
 (001.454610)  can0  1F3   [8]  00 80 00 FF 01 80 00 08
 (001.457073)  can0  338   [8]  00 00 00 00 00 00 00 00
 (001.458232)  can0  316   [8]  05 00 00 00 91 27 00 B5
 (001.459827)  can0  545   [8]  12 00 00 00 00 01 00 00
 (001.460849)  can0  1F5   [8]  CA 81 00 00 80 61 00 00
 (001.462465)  can0  1F3   [8]  00 80 00 FF 01 80 00 08
 (001.466369)  can0  153   [8]  E4 49 00 FF 00 FF FF 80
 (001.467543)  can0  1F0   [8]  09 60 09 00 09 00 09 00
 (001.469165)  can0  338   [8]  00 00 00 00 00 00 00 00
 (001.470196)  can0  545   [8]  12 00 00 00 00 01 00 00
 (001.473385)  can0  153   [8]  E4 49 00 FF 00 FF FF 80
 (001.474558)  can0  1F0   [8]  09 00 09 00 09 00 09 00
 (001.476185)  can0  1F3   [8]  00 80 00 FF 01 80 00 08
 (001.477371)  can0  1F5   [8]  CA 81 00 00 80 81 00 00
 (001.478550)  can0  338   [8]  00 00 00 00 00 00 00 00
 (001.479294)  can0  545   [8]  12 00 00 00 00 01 00 00
 (001.481214)  can0  153   [8]  E4 49 00 FF 00 FF FF 80
 (001.482247)  can0  1F0   [8]  09 20 09 00 09 00 09 00
 (001.483890)  can0  1F3   [8]  00 80 00 FF 01 80 00 08
 (001.485246)  can0  1F5   [8]  CA 81 00 00 80 91 00 00
 (001.487082)  can0  338   [8]  00 00 00 00 00 00 00 00
 (001.488254)  can0  316   [8]  05 00 00 00 91 27 00 B5
 (001.489874)  can0  1F0   [8]  09 40 09 00 09 00 09 00
 (001.490905)  can0  545   [8]  12 00 00 00 00 01 00 00
 (001.494383)  can0  153   [8]  E4 49 00 FF 00 FF FF 80
 (001.495556)  can0  1F0   [8]  09 60 09 00 09 00 09 00
 (001.497178)  can0  1F3   [8]  00 80 00 FF 01 80 00 08
 (001.498211)  can0  1F5   [8]  CA 81 00 00 80 A1 00 00
 (001.499854)  can0  545   [8]  12 00 00 00 00 01 00 00
 (001.501621)  can0  153   [8]  E4 49 00 FF 00 FF FF 80
 (001.502510)  can0  1F0   [8]  09 00 09 00 09 00 09 00
 (001.503697)  can0  1F3   [8]  00 80 00 FF 01 80 00 08
 (001.504589)  can0  1F5   [8]  CA 81 00 00 80 B1 00 00
 (001.507084)  can0  338   [8]  00 00 00 00 00 00 00 00
 (001.508259)  can0  316   [8]  05 00 00 00 91 27 00 B5
 (001.509881)  can0  545   [8]  12 00 00 00 00 01 00 00
 (001.510910)  can0  1F3   [8]  00 80 00 FF 01 80 00 08
 (001.513479)  can0  1F5   [8]  CA 81 00 00 80 C1 00 00
 (001.515403)  can0  153   [8]  E4 49 00 FF 00 FF FF 80
 (001.516583)  can0  1F0   [8]  09 40 09 00 09 00 09 00
 (001.518202)  can0  1F3   [8]  00 80 00 FF 01 80 00 08
 (001.519233)  can0  316   [8]  05 00 00 00 91 27 00 B5
 (001.520417)  can0  545   [8]  12 00 00 00 00 01 00 00
 (001.521538)  can0  1F5   [8]  CA 81 00 00 80 D1 00 00
 (001.522712)  can0  1F0   [8]  09 60 09 00 09 00 09 00
 (001.523888)  can0  153   [8]  E4 49 00 FF 00 FF FF 80
 (001.524628)  can0  1F3   [8]  00 80 00 FF 01 80 00 08
 (001.527081)  can0  338   [8]  00 00 00 00 00 00 00 00
 (001.528254)  can0  316   [8]  05 00 00 00 91 27 00 B5
 (001.529874)  can0  545   [8]  12 00 00 00 00 01 00 00
 (001.530904)  can0  153   [8]  E4 49 00 FF 00 FF FF 80
 (001.532548)  can0  1F3   [8]  00 80 00 FF 01 80 00 08
 (001.533580)  can0  1F5   [8]  CA 81 00 00 80 E1 00 00
 (001.536416)  can0  153   [8]  E4 49 00 FF 00 FF FF 80
 (001.537591)  can0  1F0   [8]  09 20 09 00 09 00 09 00
 (001.539213)  can0  338   [8]  00 00 00 00 00 00 00 00
 (001.540245)  can0  545   [8]  12 00 00 00 00 01 00 00
 (001.541287)  can0  1F5   [8]  CA 81 00 00 80 F1 96 04
 (001.543657)  can0  153   [8]  E4 49 00 FF 00 FF FF 80
 (001.544545)  can0  1F0   [8]  09 40 09 00 09 00 09 00
 (001.545735)  can0  1F3   [8]  00 80 00 FF 01 80 00 08
 (001.547650)  can0  338   [8]  00 00 00 00 00 00 00 00
 (001.548540)  can0  316   [8]  05 00 00 00 91 27 00 B5
 (001.550618)  can0  545   [8]  12 00 00 00 00 01 00 00
 (001.551361)  can0  1F5   [8]  CA 81 00 00 80 01 00 00
 (001.552535)  can0  1F3   [8]  00 80 00 FF 01 80 00 08
 (001.557089)  can0  338   [8]  00 00 00 00 00 00 00 00
 (001.558261)  can0  316   [8]  05 00 00 00 91 27 00 B5
 (001.559881)  can0  1F0   [8]  09 00 09 00 09 00 09 00
 (001.560911)  can0  1F5   [8]  CA 81 00 00 80 11 00 00
 (001.564423)  can0  153   [8]  E4 49 00 FF 00 FF FF 80
 (001.565596)  can0  1F0   [8]  09 20 09 00 09 00 09 00
 (001.567215)  can0  1F3   [8]  00 80 00 FF 01 80 00 08
 (001.568245)  can0  338   [8]  00 00 00 00 00 00 00 00
 (001.569429)  can0  545   [8]  12 00 00 00 00 01 00 00
 (001.570170)  can0  1F5   [8]  CA 81 00 00 80 21 00 00
 (001.572097)  can0  153   [8]  E4 49 00 FF 00 FF FF 80
 (001.573283)  can0  1F0   [8]  09 40 09 00 09 00 09 00
 (001.574926)  can0  1F3   [8]  00 80 00 FF 01 80 00 08
 (001.576195)  can0  1F5   [8]  CA 81 00 00 80 31 00 00
 (001.577381)  can0  316   [8]  05 00 00 00 91 27 00 B5
 (001.578559)  can0  338   [8]  00 00 00 00 00 00 00 00
 (001.579300)  can0  545   [8]  12 00 00 00 00 01 00 00
 (001.581213)  can0  1F3   [8]  00 80 00 FF 01 80 00 08
 (001.585447)  can0  153   [8]  E4 49 00 FF 00 FF FF 80
 (001.586625)  can0  1F0   [8]  09 00 09 00 09 00 09 00
 (001.588247)  can0  1F3   [8]  00 80 00 FF 01 80 00 08
 (001.589278)  can0  316   [8]  05 00 00 00 91 27 00 B5
 (001.590321)  can0  545   [8]  12 00 00 00 00 01 00 00
 (001.592442)  can0  153   [8]  E4 49 00 FF 00 FF FF 80
 (001.593617)  can0  1F0   [8]  09 20 09 00 09 00 09 00
 (001.595237)  can0  1F3   [8]  00 80 00 FF 01 80 00 08
 (001.596276)  can0  1F5   [8]  CA 81 00 00 80 51 00 00
 (001.597462)  can0  338   [8]  00 00 00 00 00 00 00 00
 (001.598497)  can0  316   [8]  05 00 00 00 91 27 00 B5
 (001.599681)  can0  545   [8]  12 00 00 00 00 01 00 00
 (001.600421)  can0  613   [8]  87 7E 09 DD 2C 00 00 00
 (001.602335)  can0  1F3   [8]  00 80 00 FF 01 80 00 08
 (001.604496)  can0  1F5   [8]  CA 81 00 00 80 61 00 00
 (001.606557)  can0  153   [8]  E4 49 00 FF 00 FF FF 80
 (001.607731)  can0  1F0   [8]  09 60 09 00 09 00 09 00
 (001.609350)  can0  316   [8]  05 00 00 00 91 27 00 B5
 (001.610380)  can0  545   [8]  12 00 00 00 00 01 00 00
 (001.612518)  can0  1F5   [8]  CA 81 00 00 80 71 E7 6A
 (001.614433)  can0  153   [8]  E4 49 00 FF 00 FF FF 80
 (001.614879)  can0  1F0   [8]  09 00 09 00 09 00 09 00
 (001.615764)  can0  1F3   [8]  00 80 00 FF 01 80 00 08
 (001.618396)  can0  338   [8]  00 00 00 00 00 00 00 00
 (001.619279)  can0  316   [8]  05 00 00 00 91 27 00 B5
 (001.620298)  can0  545   [8]  12 00 00 00 00 01 00 00
 (001.621459)  can0  153   [8]  E4 49 00 FF 00 FF FF 80
 (001.623346)  can0  1F3   [8]  00 80 00 FF 01 80 00 08
 (001.624225)  can0  1F5   [8]  CA 81 00 00 80 81 00 00
 (001.627079)  can0  338   [8]  00 00 00 00 00 00 00 00
 (001.628252)  can0  316   [8]  05 00 00 00 91 27 00 B5
 (001.629872)  can0  153   [8]  E4 49 00 FF 00 FF FF 80
 (001.630903)  can0  545   [8]  12 00 00 00 00 01 00 00
 (001.631945)  can0  1F5   [8]  CA 81 00 00 80 91 00 00
 (001.634630)  can0  153   [8]  E4 49 00 FF 00 FF FF 80
 (001.635806)  can0  1F0   [8]  09 60 09 00 09 00 09 00
 (001.637427)  can0  1F3   [8]  00 80 00 FF 01 80 00 08
 (001.638459)  can0  338   [8]  00 00 00 00 00 00 00 00
 (001.640099)  can0  545   [8]  12 00 00 00 00 01 00 00
 (001.641271)  can0  1F5   [8]  CA 81 00 00 80 A1 00 00
 (001.642303)  can0  153   [8]  E4 49 00 FF 00 FF FF 80
 (001.643337)  can0  1F3   [8]  00 80 00 FF 01 80 00 08
 (001.647080)  can0  338   [8]  00 00 00 00 00 00 00 00
 (001.648254)  can0  316   [8]  05 00 00 00 91 27 00 B5
 (001.649873)  can0  545   [8]  12 00 00 00 00 01 00 00
 (001.650902)  can0  1F3   [8]  00 80 00 FF 01 80 00 08
 (001.652086)  can0  1F5   [8]  CA 81 00 00 80 B1 00 00
 (001.655589)  can0  153   [8]  E4 49 00 FF 00 FF FF 80
 (001.656764)  can0  1F0   [8]  09 40 09 00 09 00 09 00
 (001.658382)  can0  1F3   [8]  00 80 00 FF 01 80 00 08
 (001.659411)  can0  329   [8]  84 7C D0 01 00 00 00 00
 (001.660452)  can0  1F5   [8]  CA 81 00 00 80 C1 00 00
 (001.662823)  can0  153   [8]  E4 49 00 FF 00 FF FF 80
 (001.663853)  can0  1F0   [8]  09 60 09 00 09 00 09 00
 (001.664894)  can0  1F3   [8]  00 80 00 FF 01 80 00 08
 (001.667311)  can0  338   [8]  00 00 00 00 00 00 00 00
 (001.668197)  can0  1F5   [8]  CA 81 00 00 80 D1 00 00
 (001.669383)  can0  545   [8]  12 00 00 00 00 01 00 00
 (001.670276)  can0  153   [8]  E4 49 00 FF 00 FF FF 80
 (001.672207)  can0  1F3   [8]  00 80 00 FF 01 80 00 08
 (001.676601)  can0  153   [8]  E4 49 00 FF 00 FF FF 80
 (001.677772)  can0  1F0   [8]  09 20 09 00 09 00 09 00
 (001.679391)  can0  316   [8]  05 00 00 00 91 27 00 B5
 (001.680420)  can0  545   [8]  12 00 00 00 00 01 00 00
 (001.683606)  can0  153   [8]  E4 49 00 FF 00 FF FF 80
 (001.684779)  can0  1F0   [8]  09 40 09 00 09 00 09 00
 (001.686399)  can0  1F3   [8]  00 80 00 FF 01 80 00 08
 (001.687428)  can0  1F5   [8]  CA 81 00 00 80 F1 96 04
 (001.688469)  can0  338   [8]  00 00 00 00 00 00 00 00
 (001.689210)  can0  545   [8]  12 00 00 00 00 01 00 00
 (001.690828)  can0  153   [8]  E4 49 00 FF 00 FF FF 80
 (001.691856)  can0  1F0   [8]  09 60 09 00 09 00 09 00
 (001.692898)  can0  1F3   [8]  00 80 00 FF 01 80 00 08
 (001.695739)  can0  1F5   [8]  CA 81 00 00 80 01 00 00
 (001.697360)  can0  338   [8]  00 00 00 00 00 00 00 00
 (001.698389)  can0  316   [8]  05 00 00 00 91 27 00 B5
 (001.700301)  can0  1F0   [8]  09 00 09 00 09 00 09 00
 (001.701042)  can0  545   [8]  12 00 00 00 00 01 00 00
 (001.703768)  can0  1F5   [8]  CA 81 00 00 80 11 00 00
 (001.704937)  can0  1F0   [8]  09 20 09 00 09 00 09 00
 (001.706113)  can0  153   [8]  E4 49 00 FF 00 FF FF 80
 (001.706851)  can0  1F3   [8]  00 80 00 FF 01 80 00 08
 (001.708762)  can0  338   [8]  00 00 00 00 00 00 00 00
 (001.709500)  can0  329   [8]  D1 7C D0 01 00 00 00 00
 (001.710673)  can0  545   [8]  12 00 00 00 00 01 00 00
 (001.712289)  can0  153   [8]  E4 49 00 FF 00 FF FF 80
 (001.713329)  can0  1F0   [8]  09 40 09 00 09 00 09 00
 (001.715262)  can0  1F3   [8]  00 80 00 FF 01 80 00 08
 (001.716010)  can0  1F5   [8]  CA 81 00 00 80 21 00 00
 (001.717070)  can0  338   [8]  00 00 00 00 00 00 00 00
 (001.718242)  can0  316   [8]  05 00 00 00 91 27 00 B5
 (001.719858)  can0  545   [8]  12 00 00 00 00 01 00 00
 (001.720889)  can0  1F0   [8]  09 60 09 00 09 00 09 00
 (001.721929)  can0  1F3   [8]  00 80 00 FF 01 80 00 08
 (001.723115)  can0  1F5   [8]  CA 81 00 00 80 31 00 00
 (001.725637)  can0  153   [8]  E4 49 00 FF 00 FF FF 80
 (001.726815)  can0  1F0   [8]  09 00 09 00 09 00 09 00
 (001.728438)  can0  1F3   [8]  00 80 00 FF 01 80 00 08
 (001.729468)  can0  329   [8]  D1 7C D0 01 00 00 00 00
 (001.730509)  can0  545   [8]  12 00 00 00 00 01 00 00
 (001.731803)  can0  1F5   [8]  CA 81 00 00 80 41 00 00
 (001.732965)  can0  1F0   [8]  09 20 09 00 09 00 09 00
 (001.734128)  can0  153   [8]  E4 49 00 FF 00 FF FF 80
 (001.734858)  can0  1F3   [8]  00 80 00 FF 01 80 00 08
 (001.737071)  can0  338   [8]  00 00 00 00 00 00 00 00
 (001.738242)  can0  316   [8]  05 00 00 00 91 27 00 B5
 (001.739862)  can0  545   [8]  12 00 00 00 00 01 00 00
 (001.740895)  can0  153   [8]  E4 49 00 FF 00 FF FF 80
 (001.742534)  can0  1F5   [8]  CA 81 00 00 80 51 00 00
 (001.746637)  can0  153   [8]  E4 49 00 FF 00 FF FF 80
 (001.747811)  can0  1F0   [8]  09 60 09 00 09 00 09 00
 (001.749430)  can0  316   [8]  05 00 00 00 91 27 00 B5
 (001.750461)  can0  545   [8]  12 00 00 00 00 01 00 00
 (001.751501)  can0  1F5   [8]  CA 81 00 00 80 61 00 00
 (001.753880)  can0  153   [8]  E4 49 00 FF 00 FF FF 80
 (001.754768)  can0  1F0   [8]  09 00 09 00 09 00 09 00
 (001.755957)  can0  1F3   [8]  00 80 00 FF 01 80 00 08
 (001.757870)  can0  338   [8]  00 00 00 00 00 00 00 00
 (001.758758)  can0  316   [8]  05 00 00 00 91 27 00 B5
 (001.760540)  can0  1F5   [8]  CA 81 00 00 80 71 E7 6A
 (001.761583)  can0  153   [8]  E4 49 00 FF 00 FF FF 80
 (001.763517)  can0  1F3   [8]  00 80 00 FF 01 80 00 08
 (001.767073)  can0  338   [8]  00 00 00 00 00 00 00 00
 (001.768245)  can0  316   [8]  05 00 00 00 91 27 00 B5
 (001.769863)  can0  153   [8]  E4 49 00 FF 00 FF FF 80
 (001.770892)  can0  1F5   [8]  CA 81 00 00 80 81 00 00
 (001.774645)  can0  153   [8]  E4 49 00 FF 00 FF FF 80
 (001.775821)  can0  1F0   [8]  09 60 09 00 09 00 09 00
 (001.777458)  can0  1F3   [8]  00 80 00 FF 01 80 00 08
 (001.778493)  can0  1F5   [8]  CA 81 00 00 80 91 00 00
 (001.780133)  can0  545   [8]  12 00 00 00 00 01 00 00
 (001.782179)  can0  153   [8]  E0 49 00 FF 00 FF FF 80
 (001.783355)  can0  1F0   [8]  09 00 09 00 09 00 09 00
 (001.784974)  can0  1F3   [8]  40 03 00 FF 41 7F 00 08
 (001.786827)  can0  1F5   [8]  CA 81 00 00 80 A1 00 00
 (001.788000)  can0  338   [8]  00 00 00 00 00 00 00 00
 (001.789622)  can0  329   [8]  11 7C D0 01 00 00 00 00
 (001.790652)  can0  545   [8]  12 00 00 00 00 01 00 00
 (001.792293)  can0  1F3   [8]  40 03 00 FF 41 7F 00 08
 (001.794858)  can0  1F5   [8]  CA 81 00 00 80 B1 00 00
 (001.796621)  can0  153   [8]  00 48 00 FF 00 FF FF 80
 (001.797507)  can0  1F0   [8]  09 40 09 00 09 00 09 00
 (001.798538)  can0  316   [8]  05 00 00 00 91 27 00 B5
 (001.799570)  can0  545   [8]  12 00 00 00 00 01 00 00
 (001.801347)  can0  613   [8]  87 7E 09 DD 2C 00 00 00
 (001.802376)  can0  615   [8]  00 00 00 11 03 00 00 00
 (001.803840)  can0  153   [8]  00 48 00 FF 00 FF FF 80
 (001.804870)  can0  1F0   [8]  09 60 09 00 09 00 09 00
 (001.806650)  can0  1F3   [8]  40 03 00 FF 41 7F 00 08
 (001.807539)  can0  1F5   [8]  CA 81 00 00 80 C1 00 00
 (001.808722)  can0  316   [8]  05 00 00 00 91 27 00 B5
 (001.809611)  can0  545   [8]  12 00 00 00 00 01 00 00
 (001.811389)  can0  153   [8]  00 48 00 FF 00 FF FF 80
 (001.812282)  can0  1F0   [8]  09 00 09 00 09 00 09 00
 (001.813314)  can0  1F3   [8]  40 03 00 FF 41 7F 00 08
 (001.814344)  can0  1F5   [8]  CA 81 00 00 80 D1 00 00
 (001.817068)  can0  338   [8]  00 00 00 00 00 00 00 00
 (001.818241)  can0  153   [8]  00 48 00 FF 00 FF FF 80
 (001.819853)  can0  1F3   [8]  40 03 00 FF 41 7F 00 08
 (001.820883)  can0  545   [8]  12 00 00 00 00 01 00 00
 (001.822880)  can0  1F5   [8]  CA 81 00 00 80 E1 00 00
 (001.824495)  can0  153   [8]  00 48 00 FF 00 FF FF 80
 (001.825520)  can0  1F0   [8]  09 40 09 00 09 00 09 00
 (001.827433)  can0  1F3   [8]  40 03 00 FF 41 7F 00 08
 (001.828465)  can0  338   [8]  00 00 00 00 00 00 00 00
 (001.830240)  can0  545   [8]  12 00 00 00 00 01 00 00
 (001.831420)  can0  153   [8]  00 48 00 FF 00 FF FF 80
 (001.832454)  can0  1F0   [8]  09 60 09 00 09 00 09 00
 (001.833491)  can0  1F5   [8]  CA 81 00 00 80 F1 96 04
 (001.837066)  can0  338   [8]  00 00 00 00 00 00 00 00
 (001.838237)  can0  316   [8]  05 00 00 00 91 27 00 B5
 (001.839849)  can0  545   [8]  12 00 00 00 00 01 00 00
 (001.840877)  can0  1F3   [8]  40 03 00 FF 41 7F 00 08
 (001.841916)  can0  1F5   [8]  CA 81 00 00 80 01 00 00
 (001.845273)  can0  153   [8]  00 48 00 FF 00 FF FF 80
 (001.846448)  can0  1F0   [8]  09 20 09 00 09 00 09 00
 (001.848065)  can0  1F3   [8]  40 03 00 FF 41 7F 00 08
 (001.849094)  can0  338   [8]  00 00 00 00 00 00 00 00
 (001.851023)  can0  545   [8]  12 00 00 00 00 01 00 00
 (001.851771)  can0  1F5   [8]  CA 81 00 00 80 11 00 00
 (001.852941)  can0  153   [8]  00 48 00 FF 00 FF FF 80
 (001.853971)  can0  1F0   [8]  09 40 09 00 09 00 09 00
 (001.855750)  can0  1F3   [8]  40 03 00 FF 41 7F 00 08
 (001.857062)  can0  338   [8]  00 00 00 00 00 00 00 00
 (001.858234)  can0  316   [8]  05 00 00 00 91 27 00 B5
 (001.859847)  can0  545   [8]  12 00 00 00 00 01 00 00
 (001.860875)  can0  153   [8]  00 48 00 FF 00 FF FF 80
 (001.862507)  can0  1F5   [8]  CA 81 00 00 80 21 00 00
 (001.866297)  can0  153   [8]  00 48 00 FF 00 FF FF 80
 (001.867467)  can0  1F0   [8]  09 00 09 00 09 00 09 00
 (001.869084)  can0  338   [8]  00 00 00 00 00 00 00 00
 (001.870112)  can0  1F5   [8]  CA 81 00 00 80 31 00 00
 (001.873294)  can0  153   [8]  00 48 00 FF 00 FF FF 80
 (001.874465)  can0  1F0   [8]  09 20 09 00 09 00 09 00
 (001.876105)  can0  1F3   [8]  40 03 00 FF 41 7F 00 08
 (001.877276)  can0  316   [8]  05 00 00 00 91 27 00 B5
 (001.878453)  can0  338   [8]  00 00 00 00 00 00 00 00
 (001.879190)  can0  1F5   [8]  CA 81 00 00 80 41 00 00
 (001.881115)  can0  153   [8]  00 48 00 FF 00 FF FF 80
 (001.882148)  can0  1F0   [8]  09 40 09 00 09 00 09 00
 (001.883187)  can0  1F3   [8]  40 03 00 FF 41 7F 00 08
 (001.885985)  can0  1F5   [8]  CA 81 00 00 80 51 00 00
 (001.887896)  can0  338   [8]  00 00 00 00 00 00 00 00
 (001.888638)  can0  153   [8]  00 48 00 FF 00 FF FF 80
 (001.889667)  can0  545   [8]  12 00 00 00 00 01 00 00
 (001.894305)  can0  153   [8]  00 48 00 FF 00 FF FF 80
 (001.895477)  can0  1F0   [8]  09 00 09 00 09 00 09 00
 (001.897096)  can0  1F3   [8]  40 03 00 FF 41 7F 00 08
 (001.898124)  can0  1F5   [8]  CA 81 00 00 80 61 00 00
 (001.899758)  can0  545   [8]  12 00 00 00 00 01 00 00
 (001.901528)  can0  153   [8]  00 48 00 FF 00 FF FF 80
 (001.902414)  can0  1F0   [8]  09 20 09 00 09 00 09 00
 (001.903596)  can0  1F3   [8]  40 03 00 FF 41 7F 00 08
 (001.904484)  can0  1F5   [8]  CA 81 00 00 80 71 E7 6A
 (001.907059)  can0  338   [8]  00 00 00 00 00 00 00 00
 (001.908229)  can0  316   [8]  05 00 00 00 91 27 00 B5
 (001.909842)  can0  545   [8]  12 00 00 00 00 01 00 00
 (001.910869)  can0  1F3   [8]  40 03 00 FF 41 7F 00 08
 (001.914016)  can0  1F5   [8]  CA 81 00 00 80 81 00 00
 (001.915928)  can0  153   [8]  00 48 00 FF 00 FF FF 80
 (001.917109)  can0  1F0   [8]  09 60 09 00 09 00 09 00
 (001.918742)  can0  1F3   [8]  40 03 00 FF 41 7F 00 08
 (001.919772)  can0  545   [8]  12 00 00 00 00 01 00 00
 (001.922325)  can0  153   [8]  00 48 00 FF 00 FF FF 80
 (001.923495)  can0  1F0   [8]  09 00 09 00 09 00 09 00
 (001.925110)  can0  1F5   [8]  CA 81 00 00 80 91 00 00
 (001.927057)  can0  338   [8]  00 00 00 00 00 00 00 00
 (001.928228)  can0  316   [8]  05 00 00 00 91 27 00 B5
 (001.929844)  can0  545   [8]  12 00 00 00 00 01 00 00
 (001.930870)  can0  153   [8]  00 48 00 FF 00 FF FF 80
 (001.932517)  can0  1F3   [8]  40 03 00 FF 41 7F 00 08
 (001.933543)  can0  1F5   [8]  CA 81 00 00 80 A1 00 00
 (001.936328)  can0  153   [8]  00 48 00 FF 00 FF FF 80
 (001.937497)  can0  1F0   [8]  09 40 09 00 09 00 09 00
 (001.939110)  can0  338   [8]  00 00 00 00 00 00 00 00
 (001.940138)  can0  545   [8]  12 00 00 00 00 01 00 00
 (001.941177)  can0  1F5   [8]  CA 81 00 00 80 B1 00 00
 (001.943321)  can0  153   [8]  00 48 00 FF 00 FF FF 80
 (001.944491)  can0  1F0   [8]  09 60 09 00 09 00 09 00
 (001.946110)  can0  1F3   [8]  40 03 00 FF 41 7F 00 08
 (001.947280)  can0  316   [8]  05 00 00 00 91 27 00 B5
 (001.948452)  can0  338   [8]  00 00 00 00 00 00 00 00
 (001.949190)  can0  545   [8]  12 00 00 00 00 01 00 00
 (001.951114)  can0  153   [8]  00 48 00 FF 00 FF FF 80
 (001.952149)  can0  1F0   [8]  09 00 09 00 09 00 09 00
 (001.953187)  can0  1F5   [8]  CA 81 00 00 80 C1 00 00
 (001.957062)  can0  338   [8]  00 00 00 00 00 00 00 00
 (001.958232)  can0  316   [8]  05 00 00 00 91 27 00 B5
 (001.959844)  can0  1F0   [8]  09 20 09 00 09 00 09 00
 (001.960872)  can0  545   [8]  12 00 00 00 00 01 00 00
 (001.961911)  can0  1F5   [8]  CA 81 00 00 80 D1 00 00
 (001.964343)  can0  153   [8]  00 48 00 FF 00 FF FF 80
 (001.965512)  can0  1F0   [8]  09 40 09 00 09 00 09 00
 (001.967133)  can0  1F3   [8]  40 03 00 FF 41 7F 00 08
 (001.968160)  can0  338   [8]  00 00 00 00 00 00 00 00
 (001.969199)  can0  545   [8]  12 00 00 00 00 01 00 00
 (001.970088)  can0  1F5   [8]  CA 81 00 00 80 E1 00 00
 (001.971993)  can0  153   [8]  00 48 00 FF 00 FF FF 80
 (001.973024)  can0  1F0   [8]  09 60 09 00 09 00 09 00
 (001.974660)  can0  1F3   [8]  40 03 00 FF 41 7F 00 08
 (001.977065)  can0  338   [8]  00 00 00 00 00 00 00 00
 (001.978257)  can0  1F5   [8]  CA 81 00 00 80 F1 96 04
 (001.979877)  can0  329   [8]  D1 7C D0 01 00 00 00 00
 (001.980906)  can0  1F3   [8]  40 03 00 FF 41 7F 00 08
 (001.985351)  can0  153   [8]  00 48 00 FF 00 FF FF 80
 (001.986527)  can0  1F0   [8]  09 20 09 00 09 00 09 00
 (001.988139)  can0  1F3   [8]  40 03 00 FF 41 7F 00 08
 (001.989167)  can0  1F5   [8]  CA 81 00 00 80 01 00 00
 (001.990813)  can0  545   [8]  12 00 00 00 00 01 00 00
 (001.992873)  can0  153   [8]  00 48 00 FF 00 FF FF 80
 (001.993904)  can0  1F0   [8]  09 40 09 00 09 00 09 00
 (001.995686)  can0  1F3   [8]  40 03 00 FF 41 7F 00 08
 (001.996723)  can0  1F5   [8]  CA 81 00 00 80 11 00 00
 (001.997903)  can0  338   [8]  00 00 00 00 00 00 00 00
 (001.998943)  can0  329   [8]  D1 7C D0 01 00 00 00 00
 (002.000721)  can0  545   [8]  12 00 00 00 00 01 00 00
 (002.001609)  can0  1F0   [8]  09 60 09 00 09 00 09 00
 (002.002640)  can0  615   [8]  00 00 00 11 03 00 00 00
 (002.005215)  can0  1F5   [8]  CA 81 00 00 80 21 00 00
 (002.007128)  can0  153   [8]  00 48 00 FF 00 FF FF 80
 (002.008311)  can0  1F0   [8]  09 00 09 00 09 00 09 00
 (002.009945)  can0  545   [8]  12 00 00 00 00 01 00 00
 (002.013392)  can0  153   [8]  00 48 00 FF 00 FF FF 80
 (002.014561)  can0  1F0   [8]  09 20 09 00 09 00 09 00
 (002.016178)  can0  1F5   [8]  CA 81 00 00 80 31 00 00
 (002.017353)  can0  316   [8]  05 00 00 00 91 27 00 B5
 (002.018519)  can0  338   [8]  00 00 00 00 00 00 00 00
 (002.019254)  can0  545   [8]  12 00 00 00 00 01 00 00
 (002.021146)  can0  153   [8]  00 48 00 FF 00 FF FF 80
 (002.022173)  can0  1F0   [8]  09 40 09 00 09 00 09 00
 (002.023776)  can0  1F3   [8]  40 03 00 FF 41 7F 00 08
 (002.024800)  can0  1F5   [8]  CA 81 00 00 80 41 00 00
 (002.027058)  can0  338   [8]  00 00 00 00 00 00 00 00
 (002.028237)  can0  316   [8]  05 00 00 00 91 27 00 B5
 (002.029857)  can0  1F0   [8]  09 60 09 00 09 00 09 00
 (002.030889)  can0  545   [8]  12 00 00 00 00 01 00 00
 (002.031927)  can0  1F5   [8]  CA 81 00 00 80 51 00 00
 (002.034412)  can0  153   [8]  00 48 00 FF 00 FF FF 80
 (002.035588)  can0  1F0   [8]  09 00 09 00 09 00 09 00
 (002.037208)  can0  1F3   [8]  40 03 00 FF 41 7F 00 08
 (002.038240)  can0  338   [8]  00 00 00 00 00 00 00 00
 (002.039862)  can0  545   [8]  12 00 00 00 00 01 00 00
 (002.041622)  can0  153   [8]  00 48 00 FF 00 FF FF 80
 (002.042513)  can0  1F0   [8]  09 20 09 00 09 00 09 00
 (002.043691)  can0  1F5   [8]  CA 81 00 00 80 61 00 00
 (002.047059)  can0  338   [8]  00 00 00 00 00 00 00 00
 (002.048235)  can0  316   [8]  05 00 00 00 91 27 00 B5
 (002.049855)  can0  545   [8]  12 00 00 00 00 01 00 00
 (002.050886)  can0  1F3   [8]  40 03 00 FF 41 7F 00 08
 (002.051924)  can0  1F5   [8]  CA 81 00 00 80 71 E7 6A
 (002.055408)  can0  153   [8]  00 48 00 FF 00 FF FF 80
 (002.056587)  can0  1F0   [8]  09 60 09 00 09 00 09 00
 (002.058208)  can0  1F3   [8]  40 03 00 FF 41 7F 00 08
 (002.059239)  can0  316   [8]  05 00 00 00 91 27 00 B5
 (002.060277)  can0  545   [8]  12 00 00 00 00 01 00 00
 (002.061312)  can0  1F5   [8]  CA 81 00 00 80 81 00 00
 (002.062429)  can0  153   [8]  00 48 00 FF 00 FF FF 80
 (002.063605)  can0  1F0   [8]  09 00 09 00 09 00 09 00
 (002.065226)  can0  1F3   [8]  40 03 00 FF 41 7F 00 08
 (002.067051)  can0  338   [8]  00 00 00 00 00 00 00 00
 (002.068228)  can0  316   [8]  05 00 00 00 91 27 00 B5
 (002.069847)  can0  545   [8]  12 00 00 00 00 01 00 00
 (002.070878)  can0  1F5   [8]  CA 81 00 00 80 91 00 00
 (002.072501)  can0  1F3   [8]  40 03 00 FF 41 7F 00 08
 (002.076438)  can0  153   [8]  00 48 00 FF 00 FF FF 80
 (002.077614)  can0  1F0   [8]  09 40 09 00 09 00 09 00
 (002.079236)  can0  316   [8]  05 00 00 00 91 27 00 B5
 (002.080269)  can0  1F5   [8]  CA 81 00 00 80 A1 00 00
 (002.083425)  can0  153   [8]  00 48 00 FF 00 FF FF 80
 (002.084600)  can0  1F0   [8]  09 60 09 00 09 00 09 00
 (002.086226)  can0  1F3   [8]  40 03 00 FF 41 7F 00 08
 (002.087400)  can0  1F5   [8]  CA 81 00 00 80 B1 00 00
 (002.089314)  can0  338   [8]  00 00 00 00 00 00 00 00
 (002.090208)  can0  545   [8]  12 00 00 00 00 01 00 00
 (002.091091)  can0  153   [8]  00 48 00 FF 00 FF FF 80
 (002.092123)  can0  1F3   [8]  40 03 00 FF 41 7F 00 08
 (002.096387)  can0  1F5   [8]  CA 81 00 00 80 C1 00 00
 (002.097561)  can0  316   [8]  05 00 00 00 91 27 00 B5
 (002.099479)  can0  338   [8]  00 00 00 00 00 00 00 00
 (002.100371)  can0  329   [8]  11 7C D0 01 00 00 00 00
