 (000.000000)  can0  338   [8]  00 00 00 00 00 00 00 00
 (000.001102)  can0  316   [8]  15 00 00 00 00 00 00 00
 (000.002986)  can0  545   [8]  12 00 00 00 00 01 00 00
 (000.009520)  can0  338   [8]  00 00 00 00 00 00 00 00
 (000.010694)  can0  316   [8]  05 00 00 00 00 1D 00 0B
 (000.012320)  can0  545   [8]  12 00 00 00 00 01 00 00
 (000.015337)  can0  613   [8]  87 7E 0A DB 2C 00 00 00
 (000.016397)  can0  615   [8]  00 00 00 11 03 00 00 00
 (000.017575)  can0  1F0   [8]  09 60 09 00 09 00 09 00
 (000.018610)  can0  1F3   [8]  00 80 00 09 02 80 00 00
 (000.020390)  can0  338   [8]  00 00 00 00 00 00 00 00
 (000.021421)  can0  316   [8]  05 00 00 00 1D 1D 00 00
 (000.023162)  can0  545   [8]  12 00 00 00 00 01 00 00
 (000.024190)  can0  153   [8]  E4 49 00 FF 00 FF FF 80
 (000.025937)  can0  1F3   [8]  00 80 00 09 02 80 00 00
 (000.029529)  can0  338   [8]  00 00 00 00 00 00 00 00
 (000.030699)  can0  316   [8]  05 00 00 00 1D 1D 00 00
 (000.032482)  can0  1F0   [8]  09 20 09 00 09 00 09 00
 (000.033842)  can0  545   [8]  12 00 00 00 00 01 00 00
 (000.035025)  can0  610   [0]  remote request
 (000.035769)  can0  610   [8]  30 95 60 4B 50 00 00 00
 (000.037616)  can0  153   [8]  E4 49 00 FF 00 FF FF 80
 (000.038686)  can0  1F0   [8]  09 40 09 00 09 00 09 00
 (000.040464)  can0  1F3   [8]  00 80 00 08 02 80 00 00
 (000.041502)  can0  338   [8]  00 00 00 00 00 00 00 00
 (000.043756)  can0  545   [8]  12 00 00 00 00 01 00 00
 (000.044791)  can0  1F5   [8]  02 83 00 00 80 A1 00 00
 (000.045975)  can0  1F3   [8]  00 80 00 08 02 80 00 00
 (000.049507)  can0  338   [8]  00 00 00 00 00 00 00 00
 (000.050683)  can0  316   [8]  05 00 00 00 1D 1D 00 00
 (000.052446)  can0  545   [8]  12 00 00 00 00 01 00 00
 (000.053787)  can0  1F3   [8]  00 80 00 08 02 80 00 00
 (000.054716)  can0  1F5   [8]  02 83 00 00 80 B1 00 00
 (000.058088)  can0  153   [8]  E4 49 00 FF 00 FF FF 80
 (000.059285)  can0  1F0   [8]  09 20 09 00 09 00 09 00
 (000.061073)  can0  1F3   [8]  00 80 00 08 02 80 00 00
 (000.062423)  can0  329   [8]  11 6F D0 01 00 00 00 00
 (000.064199)  can0  1F5   [8]  02 83 00 00 80 C1 00 00
 (000.065838)  can0  153   [8]  E4 49 00 FF 00 FF FF 80
 (000.066903)  can0  1F0   [8]  09 40 09 00 09 00 09 00
 (000.068112)  can0  1F3   [8]  00 80 00 07 02 80 00 00
 (000.070627)  can0  1F5   [8]  02 83 00 00 80 D1 00 00
 (000.071364)  can0  338   [8]  00 00 00 00 00 00 00 00
 (000.072702)  can0  545   [8]  12 00 00 00 00 01 00 00
 (000.073601)  can0  153   [8]  E4 49 00 FF 00 FF FF 80
 (000.075385)  can0  1F3   [8]  00 80 00 07 02 80 00 00
 (000.079011)  can0  1F5   [8]  02 83 00 00 80 E1 00 00
 (000.080205)  can0  153   [8]  E4 49 00 FF 00 FF FF 80
 (000.081998)  can0  1F3   [8]  00 80 00 07 02 80 00 00
 (000.083365)  can0  545   [8]  12 00 00 00 00 01 00 00
 (000.086060)  can0  153   [8]  E4 49 00 FF 00 FF FF 80
 (000.087284)  can0  1F0   [8]  09 20 09 00 09 00 09 00
 (000.089079)  can0  1F3   [8]  00 80 00 07 02 80 00 00
 (000.090431)  can0  1F5   [8]  02 83 00 00 80 F1 96 04
 (000.091621)  can0  316   [8]  05 00 00 00 97 1D 00 00
 (000.092359)  can0  545   [8]  12 00 00 00 00 01 00 00
 (000.094488)  can0  153   [8]  E4 49 00 FF 00 FF FF 80
 (000.094935)  can0  1F0   [8]  09 40 09 00 09 00 09 00
 (000.096587)  can0  1F3   [8]  00 80 00 06 02 80 00 00
 (000.098246)  can0  1F5   [8]  02 83 00 00 80 01 00 00
 (000.099498)  can0  338   [8]  00 00 00 00 00 00 00 00
 (000.100684)  can0  316   [8]  05 00 00 00 97 1D 00 00
 (000.102479)  can0  153   [8]  E4 49 00 FF 00 FF FF 80
 (000.103384)  can0  545   [8]  12 00 00 00 00 01 00 00
 (000.105663)  can0  1F5   [8]  02 83 00 00 80 11 00 00
 (000.107434)  can0  153   [8]  E4 49 00 FF 00 FF FF 80
 (000.108329)  can0  1F0   [8]  09 00 09 00 09 00 09 00
 (000.109366)  can0  1F3   [8]  00 80 00 06 02 80 00 00
 (000.110545)  can0  338   [8]  00 00 00 00 00 00 00 00
 (000.112362)  can0  329   [8]  40 6F D0 01 00 00 00 00
 (000.113253)  can0  545   [8]  12 00 00 00 00 01 00 00
 (000.114295)  can0  153   [8]  E4 49 00 FF 00 FF FF 80
 (000.115187)  can0  1F0   [8]  09 20 09 00 09 00 09 00
 (000.116395)  can0  1F3   [8]  00 80 00 06 02 80 00 00
 (000.117128)  can0  1F5   [8]  02 83 00 00 80 21 00 00
 (000.119494)  can0  338   [8]  00 00 00 00 00 00 00 00
 (000.120668)  can0  316   [8]  05 00 00 00 93 1D 00 00
 (000.122287)  can0  545   [8]  12 00 00 00 00 01 00 00
 (000.123319)  can0  1F0   [8]  09 40 09 00 09 00 09 00
 (000.124363)  can0  1F3   [8]  00 80 00 06 02 80 00 00
 (000.125400)  can0  1F5   [8]  02 83 00 00 80 31 00 00
 (000.128064)  can0  153   [8]  E4 49 00 FF 00 FF FF 80
 (000.129229)  can0  1F0   [8]  09 60 09 00 09 00 09 00
 (000.130881)  can0  1F3   [8]  00 80 00 06 02 80 00 00
 (000.131925)  can0  329   [8]  40 6F D0 01 00 00 00 00
 (000.133137)  can0  545   [8]  12 00 00 00 00 01 00 00
 (000.134323)  can0  615   [8]  00 00 00 11 03 00 00 00
 (000.135518)  can0  1F5   [8]  02 83 00 00 80 41 00 00
 (000.136576)  can0  153   [8]  E4 49 00 FF 00 FF FF 80
 (000.138370)  can0  1F3   [8]  00 80 00 05 02 80 00 00
 (000.139580)  can0  338   [8]  00 00 00 00 00 00 00 00
 (000.140780)  can0  316   [8]  05 00 00 00 93 1D 00 00
 (000.142629)  can0  545   [8]  12 00 00 00 00 01 00 00
 (000.143981)  can0  153   [8]  E4 49 00 FF 00 FF FF 80
 (000.145769)  can0  1F5   [8]  02 83 00 00 80 51 00 00
 (000.149098)  can0  153   [8]  E4 49 00 FF 00 FF FF 80
 (000.150288)  can0  1F0   [8]  09 40 09 00 09 00 09 00
 (000.152095)  can0  316   [8]  05 00 00 00 93 1D 00 00
 (000.153456)  can0  545   [8]  12 00 00 00 00 01 00 00
 (000.154647)  can0  1F5   [8]  02 83 00 00 80 61 00 00
 (000.156742)  can0  153   [8]  E4 49 00 FF 00 FF FF 80
 (000.157784)  can0  1F0   [8]  09 60 09 00 09 00 09 00
 (000.159553)  can0  1F3   [8]  00 80 00 05 02 80 00 00
 (000.160143)  can0  338   [8]  00 00 00 00 00 00 00 00
 (000.161323)  can0  545   [8]  12 00 00 00 00 01 00 00
 (000.162216)  can0  1F5   [8]  02 83 00 00 80 71 FB 7D
 (000.163985)  can0  153   [8]  E4 49 00 FF 00 FF FF 80
 (000.164879)  can0  1F0   [8]  09 00 09 00 09 00 09 00
 (000.166665)  can0  1F3   [8]  00 80 00 05 02 80 00 00
 (000.169488)  can0  338   [8]  00 00 00 00 00 00 00 00
 (000.170679)  can0  316   [8]  05 00 00 00 93 1D 00 00
 (000.172475)  can0  153   [8]  E4 49 00 FF 00 FF FF 80
 (000.173827)  can0  545   [8]  12 00 00 00 00 01 00 00
 (000.177135)  can0  153   [8]  E4 49 00 FF 00 FF FF 80
 (000.178314)  can0  1F0   [8]  09 40 09 00 09 00 09 00
 (000.180106)  can0  1F3   [8]  00 80 00 04 02 80 00 00
 (000.181461)  can0  1F5   [8]  02 83 00 00 80 91 00 00
 (000.183249)  can0  545   [8]  12 00 00 00 00 01 00 00
 (000.184909)  can0  153   [8]  E4 49 00 FF 00 FF FF 80
 (000.185970)  can0  1F0   [8]  09 60 09 00 09 00 09 00
 (000.187186)  can0  1F3   [8]  00 80 00 04 02 80 00 00
 (000.189552)  can0  1F5   [8]  02 83 00 00 80 A1 00 00
 (000.190767)  can0  338   [8]  00 00 00 00 00 00 00 00
 (000.192555)  can0  545   [8]  12 00 00 00 00 01 00 00
 (000.193613)  can0  1F0   [8]  09 00 09 00 09 00 09 00
 (000.194803)  can0  1F3   [8]  00 80 00 04 02 80 00 00
 (000.196974)  can0  1F5   [8]  02 83 00 00 80 B1 00 00
 (000.198914)  can0  153   [8]  E4 49 00 FF 00 FF FF 80
 (000.200104)  can0  1F0   [8]  09 20 09 00 09 00 09 00
 (000.201895)  can0  316   [8]  05 00 00 00 93 1D 00 00
 (000.202944)  can0  545   [8]  12 00 00 00 00 01 00 00
 (000.205160)  can0  153   [8]  E4 49 00 FF 00 FF FF 80
 (000.206423)  can0  1F0   [8]  09 40 09 00 09 00 09 00
 (000.208231)  can0  1F3   [8]  00 80 00 04 02 80 00 00
 (000.209591)  can0  1F5   [8]  02 83 00 00 80 C1 00 00
 (000.210785)  can0  338   [8]  00 00 00 00 00 00 00 00
 (000.211838)  can0  545   [8]  12 00 00 00 00 01 00 00
 (000.213491)  can0  153   [8]  E4 49 00 FF 00 FF FF 80
 (000.214388)  can0  1F3   [8]  00 80 00 04 02 80 00 00
 (000.215293)  can0  613   [8]  87 7E 0A DB 2C 00 00 00
 (000.216372)  can0  615   [8]  00 00 00 11 03 00 00 00
 (000.218010)  can0  1F5   [8]  02 83 00 00 80 D1 00 00
 (000.219784)  can0  153   [8]  E4 49 00 FF 00 FF FF 80
 (000.220984)  can0  1F0   [8]  09 00 09 00 09 00 09 00
 (000.222632)  can0  338   [8]  00 00 00 00 00 00 00 00
 (000.223667)  can0  545   [8]  12 00 00 00 00 01 00 00
 (000.225018)  can0  1F5   [8]  02 83 00 00 80 E1 00 00
 (000.226951)  can0  153   [8]  E4 49 00 FF 00 FF FF 80
 (000.227997)  can0  1F0   [8]  09 20 09 00 09 00 09 00
 (000.229086)  can0  1F3   [8]  00 80 00 03 02 80 00 00
 (000.229995)  can0  338   [8]  00 00 00 00 00 00 00 00
 (000.231913)  can0  316   [8]  05 00 00 00 93 1D 00 98
 (000.232657)  can0  545   [8]  12 00 00 00 00 01 00 00
 (000.233840)  can0  153   [8]  E4 49 00 FF 00 FF FF 80
 (000.234901)  can0  1F0   [8]  09 40 09 00 09 00 09 00
 (000.236587)  can0  1F5   [8]  02 83 00 00 80 F1 96 04
 (000.239494)  can0  338   [8]  00 00 00 00 00 00 00 00
 (000.240724)  can0  316   [8]  05 00 00 00 93 1D 00 9A
 (000.242352)  can0  153   [8]  E4 49 00 FF 00 FF FF 80
 (000.243390)  can0  545   [8]  12 00 00 00 00 01 00 00
 (000.244437)  can0  1F5   [8]  02 83 00 00 80 01 00 00
 (000.247776)  can0  153   [8]  E4 49 00 FF 00 FF FF 80
 (000.248811)  can0  1F0   [8]  09 00 09 00 09 00 09 00
 (000.250623)  can0  1F3   [8]  00 80 00 03 02 80 00 00
 (000.251521)  can0  338   [8]  00 00 00 00 00 00 00 00
 (000.253186)  can0  545   [8]  12 00 00 00 00 01 00 00
 (000.254243)  can0  1F5   [8]  02 83 00 00 80 11 00 00
 (000.255438)  can0  153   [8]  E4 49 00 FF 00 FF FF 80
 (000.256478)  can0  1F3   [8]  00 80 00 03 02 80 00 00
 (000.259490)  can0  338   [8]  00 00 00 00 00 00 00 00
 (000.260670)  can0  316   [8]  05 00 00 00 93 29 00 9E
 (000.262310)  can0  545   [8]  12 00 00 00 00 01 00 00
 (000.263360)  can0  1F0   [8]  09 40 09 00 09 00 09 00
 (000.264552)  can0  1F5   [8]  02 83 00 00 80 21 00 00
 (000.268168)  can0  153   [8]  E4 49 00 FF 00 FF FF 80
 (000.269342)  can0  1F0   [8]  09 60 09 00 09 00 09 00
 (000.270969)  can0  1F3   [8]  00 80 00 03 02 80 00 00
 (000.272003)  can0  329   [8]  D1 6F D0 01 00 00 00 00
 (000.273039)  can0  545   [8]  12 00 00 00 00 01 00 00
 (000.275189)  can0  153   [8]  E4 49 00 FF 00 FF FF 80
 (000.276372)  can0  1F0   [8]  09 00 09 00 09 00 09 00
 (000.277996)  can0  1F3   [8]  00 80 00 02 02 80 00 00
 (000.279763)  can0  338   [8]  00 00 00 00 00 00 00 00
 (000.280653)  can0  316   [8]  05 00 00 00 93 29 00 A2
 (000.281850)  can0  545   [8]  12 00 00 00 00 01 00 00
 (000.282754)  can0  153   [8]  E4 49 00 FF 00 FF FF 80
 (000.284672)  can0  1F3   [8]  00 80 00 02 02 80 00 00
 (000.288204)  can0  1F5   [8]  02 83 00 00 80 51 00 00
 (000.289361)  can0  1F0   [8]  09 40 09 00 09 00 09 00
 (000.290528)  can0  153   [8]  E4 49 00 FF 00 FF FF 80
 (000.291269)  can0  329   [8]  11 6F D0 01 00 00 00 00
 (000.293184)  can0  545   [8]  12 00 00 00 00 01 00 00
 (000.296176)  can0  153   [8]  E4 49 00 FF 00 FF FF 80
 (000.297359)  can0  1F0   [8]  09 60 09 00 09 00 09 00
 (000.299033)  can0  1F3   [8]  00 80 00 02 02 80 00 00
 (000.300099)  can0  1F5   [8]  02 83 00 00 80 61 00 00
 (000.301304)  can0  316   [8]  05 00 00 00 93 29 00 A4
 (000.302067)  can0  545   [8]  12 00 00 00 00 01 00 00
 (000.304206)  can0  153   [8]  E4 49 00 FF 00 FF FF 80
 (000.305102)  can0  1F0   [8]  09 00 09 00 09 00 09 00
 (000.306932)  can0  1F3   [8]  00 80 00 02 02 80 00 00
 (000.307828)  can0  1F5   [8]  02 83 00 00 80 71 FB 7D
 (000.309487)  can0  338   [8]  00 00 00 00 00 00 00 00
 (000.310671)  can0  316   [8]  05 00 00 00 93 29 00 A6
 (000.312335)  can0  153   [8]  E4 49 00 FF 00 FF FF 80
 (000.313381)  can0  545   [8]  12 00 00 00 00 01 00 00
 (000.316294)  can0  1F5   [8]  02 83 00 00 80 81 00 00
 (000.317501)  can0  1F0   [8]  09 40 09 00 09 00 09 00
 (000.318693)  can0  153   [8]  E4 49 00 FF 00 FF FF 80
 (000.319444)  can0  1F3   [8]  00 80 00 02 02 80 00 00
 (000.321377)  can0  338   [8]  00 00 00 00 00 00 00 00
 (000.322130)  can0  545   [8]  12 00 00 00 00 01 00 00
 (000.324182)  can0  153   [8]  E4 49 00 FF 00 FF FF 80
 (000.325359)  can0  1F0   [8]  09 60 09 00 09 00 09 00
 (000.326979)  can0  1F3   [8]  00 80 00 02 02 80 00 00
 (000.328018)  can0  1F5   [8]  02 83 00 00 80 91 00 00
 (000.329482)  can0  338   [8]  00 00 00 00 00 00 00 00
 (000.330682)  can0  316   [8]  05 00 00 00 93 29 00 A8
 (000.332489)  can0  545   [8]  12 00 00 00 00 01 00 00
 (000.333844)  can0  1F0   [8]  09 00 09 00 09 00 09 00
 (000.334614)  can0  1F3   [8]  00 80 00 02 02 80 00 00
 (000.335857)  can0  1F5   [8]  02 83 00 00 80 A1 00 00
 (000.338213)  can0  153   [8]  E4 49 00 FF 00 FF FF 80
 (000.339406)  can0  1F0   [8]  09 20 09 00 09 00 09 00
 (000.341202)  can0  1F3   [8]  00 80 00 02 02 80 00 00
 (000.342551)  can0  545   [8]  12 00 00 00 00 01 00 00
 (000.343743)  can0  1F5   [8]  02 83 00 00 80 B1 00 00
 (000.345214)  can0  153   [8]  E4 49 00 FF 00 FF FF 80
 (000.346409)  can0  1F0   [8]  09 40 09 00 09 00 09 00
 (000.348186)  can0  1F3   [8]  00 80 00 02 02 80 00 00
 (000.350111)  can0  338   [8]  00 00 00 00 00 00 00 00
 (000.351296)  can0  316   [8]  05 00 00 00 93 29 00 AA
 (000.353358)  can0  545   [8]  12 00 00 00 00 01 00 00
 (000.354107)  can0  153   [8]  E4 49 00 FF 00 FF FF 80
 (000.356196)  can0  1F5   [8]  02 83 00 00 80 C1 00 00
 (000.359238)  can0  153   [8]  E4 49 00 FF 00 FF FF 80
 (000.360430)  can0  1F0   [8]  09 00 09 00 09 00 09 00
 (000.362242)  can0  316   [8]  05 00 00 00 93 29 00 AB
 (000.363616)  can0  545   [8]  12 00 00 00 00 01 00 00
 (000.364392)  can0  1F5   [8]  02 83 00 00 80 D1 00 00
 (000.366230)  can0  153   [8]  E4 49 00 FF 00 FF FF 80
 (000.367424)  can0  1F0   [8]  09 20 09 00 09 00 09 00
 (000.369080)  can0  1F3   [8]  00 80 00 01 02 80 00 00
 (000.370272)  can0  338   [8]  00 00 00 00 00 00 00 00
 (000.372362)  can0  316   [8]  05 00 00 00 93 29 00 AB
 (000.373430)  can0  545   [8]  12 00 00 00 00 01 00 00
 (000.374626)  can0  1F5   [8]  02 83 00 00 80 E1 00 00
 (000.375682)  can0  1F3   [8]  00 80 00 01 02 80 00 00
 (000.379391)  can0  1F5   [8]  02 83 00 00 80 F1 96 04
 (000.380585)  can0  316   [8]  05 00 00 00 93 29 00 AC
 (000.382385)  can0  338   [8]  00 00 00 00 00 00 00 00
 (000.383739)  can0  545   [8]  12 00 00 00 00 01 00 00
 (000.387306)  can0  153   [8]  E4 49 00 FF 00 FF FF 80
 (000.388495)  can0  1F0   [8]  09 00 09 00 09 00 09 00
 (000.390300)  can0  1F3   [8]  00 80 00 01 02 80 00 00
 (000.391663)  can0  1F5   [8]  02 83 00 00 80 01 00 00
 (000.393504)  can0  545   [8]  12 00 00 00 00 01 00 00
 (000.395170)  can0  153   [8]  E4 49 00 FF 00 FF FF 80
 (000.396228)  can0  1F0   [8]  09 20 09 00 09 00 09 00
 (000.397128)  can0  1F3   [8]  00 80 00 01 02 80 00 00
 (000.398338)  can0  1F5   [8]  02 83 00 00 80 11 00 00
 (000.400457)  can0  338   [8]  00 00 00 00 00 00 00 00
 (000.401508)  can0  316   [8]  05 00 00 00 93 29 00 AD
 (000.403596)  can0  153   [8]  E4 49 00 FF 00 FF FF 80
 (000.404358)  can0  1F3   [8]  00 80 00 01 02 80 00 00
 (000.407452)  can0  1F5   [8]  02 83 00 00 80 21 00 00
 (000.408631)  can0  610   [8]  remote request
 (000.411025)  can0  610   [8]  30 95 60 4B 50 00 00 00
 (000.411780)  can0  1F3   [8]  00 80 00 01 02 80 00 00
 (000.413754)  can0  545   [8]  12 00 00 00 00 01 00 00
 (000.415292)  can0  613   [8]  87 7E 0A DB 2C 00 00 00
 (000.416340)  can0  615   [8]  00 00 00 11 03 00 00 00
 (000.418272)  can0  1F3   [8]  00 80 00 01 02 80 00 00
 (000.419042)  can0  1F5   [8]  02 83 00 00 80 31 00 00
 (000.420226)  can0  338   [8]  00 00 00 00 00 00 00 00
 (000.421119)  can0  316   [8]  05 00 00 00 93 29 00 AF
 (000.423212)  can0  545   [8]  12 00 00 00 00 01 00 00
 (000.423964)  can0  153   [8]  E4 49 00 FF 00 FF FF 80
 (000.425757)  can0  1F3   [8]  00 80 00 01 02 80 00 00
 (000.426963)  can0  1F5   [8]  02 83 00 00 80 41 00 00
 (000.429273)  can0  153   [8]  E4 49 00 FF 00 FF FF 80
 (000.430452)  can0  1F0   [8]  09 40 09 00 09 00 09 00
 (000.432076)  can0  316   [8]  05 00 00 00 93 29 00 AF
 (000.433113)  can0  545   [8]  12 00 00 00 00 01 00 00
 (000.434150)  can0  1F5   [8]  02 83 00 00 80 51 00 00
 (000.436283)  can0  153   [8]  E4 49 00 FF 00 FF FF 80
 (000.437487)  can0  1F0   [8]  09 60 09 00 09 00 09 00
 (000.439130)  can0  1F3   [8]  00 80 00 01 02 80 00 00
 (000.440328)  can0  338   [8]  00 00 00 00 00 00 00 00
 (000.441957)  can0  329   [8]  80 6F D0 01 00 00 00 00
 (000.442996)  can0  545   [8]  12 00 00 00 00 01 00 00
 (000.444182)  can0  153   [8]  E4 49 00 FF 00 FF FF 80
 (000.445224)  can0  1F3   [8]  00 80 00 00 02 80 00 00
 (000.446869)  can0  1F5   [8]  02 83 00 00 80 61 00 00
 (000.449482)  can0  338   [8]  00 00 00 00 00 00 00 00
 (000.450664)  can0  316   [8]  05 00 00 00 93 29 00 B0
 (000.452291)  can0  545   [8]  12 00 00 00 00 01 00 00
 (000.453328)  can0  1F3   [8]  00 80 00 00 02 80 00 00
 (000.454980)  can0  1F5   [8]  02 83 00 00 80 71 FB 7D
 (000.457273)  can0  153   [8]  E4 49 00 FF 00 FF FF 80
 (000.458455)  can0  1F0   [8]  09 40 09 00 09 00 09 00
 (000.460091)  can0  1F3   [8]  00 80 00 00 02 80 00 00
 (000.461129)  can0  338   [8]  00 00 00 00 00 00 00 00
 (000.462781)  can0  545   [8]  12 00 00 00 00 01 00 00
 (000.463822)  can0  1F5   [8]  02 83 00 00 80 81 00 00
 (000.464870)  can0  153   [8]  E4 49 00 FF 00 FF FF 80
 (000.466078)  can0  1F0   [8]  09 60 09 00 09 00 09 00
 (000.467728)  can0  1F3   [8]  00 80 00 00 02 80 00 00
 (000.469475)  can0  338   [8]  00 00 00 00 00 00 00 00
 (000.470656)  can0  316   [8]  05 00 00 00 93 29 00 B1
 (000.472278)  can0  545   [8]  12 00 00 00 00 01 00 00
 (000.473317)  can0  153   [8]  E4 49 00 FF 00 FF FF 80
 (000.474356)  can0  1F3   [8]  00 80 00 00 02 80 00 00
 (000.478309)  can0  153   [8]  E4 49 00 FF 00 FF FF 80
 (000.479491)  can0  1F0   [8]  09 20 09 00 09 00 09 00
 (000.481297)  can0  1F3   [8]  00 80 00 00 02 80 00 00
 (000.482190)  can0  545   [8]  12 00 00 00 00 01 00 00
 (000.483236)  can0  1F5   [8]  02 83 00 00 80 A1 00 00
 (000.485315)  can0  153   [8]  E4 49 00 FF 00 FF FF 80
 (000.486496)  can0  1F0   [8]  09 40 09 00 09 00 09 00
 (000.488122)  can0  1F3   [8]  00 80 00 00 02 80 00 00
 (000.489287)  can0  1F5   [8]  02 83 00 00 80 B1 00 00
 (000.490310)  can0  338   [8]  00 00 00 00 00 00 00 00
 (000.491339)  can0  329   [8]  D1 6F D0 01 00 00 00 00
 (000.492972)  can0  545   [8]  12 00 00 00 00 01 00 00
 (000.494006)  can0  153   [8]  E4 49 00 FF 00 FF FF 80
 (000.495945)  can0  1F3   [8]  00 80 00 00 02 80 00 00
 (000.498468)  can0  1F5   [8]  02 83 00 00 80 C1 00 00
 (000.499655)  can0  1F0   [8]  09 00 09 00 09 00 09 00
 (000.500844)  can0  153   [8]  E4 49 00 FF 00 FF FF 80
 (000.501588)  can0  329   [8]  D1 6F D0 01 00 00 00 00
 (000.503522)  can0  545   [8]  12 00 00 00 00 01 00 00
 (000.506352)  can0  153   [8]  E4 49 00 FF 00 FF FF 80
 (000.507537)  can0  1F0   [8]  09 20 09 00 09 00 09 00
 (000.509171)  can0  1F3   [8]  00 80 00 00 02 80 00 00
 (000.510208)  can0  1F5   [8]  02 83 00 00 80 D1 00 00
 (000.511420)  can0  329   [8]  D1 6F D0 01 00 00 00 00
 (000.512176)  can0  545   [8]  12 00 00 00 00 01 00 00
 (000.514096)  can0  153   [8]  E4 49 00 FF 00 FF FF 80
 (000.515137)  can0  1F0   [8]  09 40 09 00 09 00 09 00
 (000.516786)  can0  1F3   [8]  00 80 00 00 02 80 00 00
 (000.517968)  can0  1F5   [8]  02 83 00 00 80 E1 00 00
 (000.519533)  can0  338   [8]  00 00 00 00 00 00 00 00
 (000.520714)  can0  316   [8]  05 00 00 00 93 29 00 B2
 (000.522340)  can0  545   [8]  12 00 00 00 00 01 00 00
 (000.523380)  can0  1F3   [8]  00 80 00 00 02 80 00 00
 (000.525041)  can0  1F5   [8]  02 83 00 00 80 F1 96 04
 (000.527356)  can0  153   [8]  E4 49 00 FF 00 FF FF 80
 (000.528542)  can0  1F0   [8]  09 00 09 00 09 00 09 00
 (000.530170)  can0  1F3   [8]  00 80 00 00 02 80 00 00
 (000.531207)  can0  338   [8]  00 00 00 00 00 00 00 00
 (000.532858)  can0  545   [8]  12 00 00 00 00 01 00 00
 (000.534630)  can0  153   [8]  E4 49 00 FF 00 FF FF 80
 (000.535521)  can0  1F0   [8]  09 20 09 00 09 00 09 00
 (000.536716)  can0  1F5   [8]  02 83 00 00 80 01 00 00
 (000.539478)  can0  338   [8]  00 00 00 00 00 00 00 00
 (000.540721)  can0  316   [8]  05 00 00 00 93 29 00 B2
 (000.542354)  can0  545   [8]  12 00 00 00 00 01 00 00
 (000.543394)  can0  153   [8]  E4 49 00 FF 00 FF FF 80
 (000.544434)  can0  1F3   [8]  00 80 00 00 02 80 00 00
 (000.545473)  can0  1F5   [8]  02 83 00 00 80 11 00 00
 (000.548326)  can0  153   [8]  E4 49 00 FF 00 FF FF 80
 (000.549505)  can0  1F0   [8]  09 60 09 00 09 00 09 00
 (000.551127)  can0  1F3   [8]  00 80 00 00 02 80 00 00
 (000.552163)  can0  545   [8]  12 00 00 00 00 01 00 00
 (000.553948)  can0  1F5   [8]  02 83 00 00 80 21 00 00
 (000.555357)  can0  153   [8]  E4 49 00 FF 00 FF FF 80
 (000.556538)  can0  1F0   [8]  09 00 09 00 09 00 09 00
 (000.558163)  can0  1F3   [8]  00 80 00 00 02 80 00 00
 (000.560086)  can0  338   [8]  00 00 00 00 00 00 00 00
 (000.561277)  can0  316   [8]  05 00 00 00 93 29 00 B3
 (000.562930)  can0  545   [8]  12 00 00 00 00 01 00 00
 (000.563971)  can0  1F5   [8]  02 83 00 00 80 31 00 00
 (000.565163)  can0  1F3   [8]  00 80 00 00 02 80 00 00
 (000.569349)  can0  153   [8]  E4 49 00 FF 00 FF FF 80
 (000.570529)  can0  1F0   [8]  09 40 09 00 09 00 09 00
 (000.572157)  can0  316   [8]  05 00 00 00 93 29 00 B3
 (000.573194)  can0  545   [8]  12 00 00 00 00 01 00 00
 (000.574241)  can0  1F5   [8]  02 83 00 00 80 41 00 00
 (000.576357)  can0  153   [8]  E4 49 00 FF 00 FF FF 80
 (000.577592)  can0  1F0   [8]  09 60 09 00 09 00 09 00
 (000.579239)  can0  1F3   [8]  00 80 00 00 02 80 00 00
 (000.580423)  can0  338   [8]  00 00 00 00 00 00 00 00
 (000.582050)  can0  316   [8]  05 00 00 00 93 29 00 B3
 (000.583087)  can0  545   [8]  12 00 00 00 00 01 00 00
 (000.584276)  can0  153   [8]  E4 49 00 FF 00 FF FF 80
 (000.585321)  can0  1F3   [8]  00 80 00 00 02 80 00 00
 (000.589451)  can0  338   [8]  00 00 00 00 00 00 00 00
 (000.590628)  can0  1F5   [8]  02 83 00 00 80 61 00 00
 (000.592253)  can0  329   [8]  11 6F D0 01 00 00 00 00
 (000.593288)  can0  545   [8]  12 00 00 00 00 01 00 00
 (000.597375)  can0  153   [8]  E4 49 00 FF 00 FF FF 80
 (000.598559)  can0  1F0   [8]  09 40 09 00 09 00 09 00
 (000.600190)  can0  1F3   [8]  00 80 00 FF 01 80 00 00
 (000.601227)  can0  1F5   [8]  02 83 00 00 80 71 FB 7D
 (000.602876)  can0  545   [8]  12 00 00 00 00 01 00 00
 (000.604643)  can0  153   [8]  E4 49 00 FF 00 FF FF 80
 (000.605549)  can0  1F0   [8]  09 60 09 00 09 00 09 00
 (000.606842)  can0  1F3   [8]  00 80 00 FF 01 80 00 00
 (000.608807)  can0  1F5   [8]  02 83 00 00 80 81 00 00
 (000.609867)  can0  316   [8]  05 00 00 00 93 29 00 B3
 (000.611802)  can0  338   [8]  00 00 00 00 00 00 00 00
 (000.612586)  can0  545   [8]  12 00 00 00 00 01 00 00
 (000.614550)  can0  1F3   [8]  00 80 00 FF 01 80 00 00
 (000.615769)  can0  613   [8]  87 7E 0A DB 2C 00 00 00
 (000.617782)  can0  615   [8]  00 00 00 11 03 00 00 00
 (000.618234)  can0  1F5   [8]  02 83 00 00 80 91 00 00
 (000.619444)  can0  153   [8]  E4 49 00 FF 00 FF FF 80
 (000.620211)  can0  1F3   [8]  00 80 00 FF 01 80 00 00
 (000.622193)  can0  545   [8]  12 00 00 00 00 01 00 00
 (000.625401)  can0  153   [8]  E4 49 00 FF 00 FF FF 80
 (000.626599)  can0  1F0   [8]  09 40 09 00 09 00 09 00
 (000.628246)  can0  1F3   [8]  00 80 00 FF 01 80 00 00
 (000.629300)  can0  1F5   [8]  02 83 00 00 80 A1 00 00
 (000.630513)  can0  338   [8]  00 00 00 00 00 00 00 00
 (000.630964)  can0  329   [8]  40 6F D0 01 00 00 00 00
 (000.632756)  can0  545   [8]  12 00 00 00 00 01 00 00
 (000.633660)  can0  153   [8]  E4 49 00 FF 00 FF FF 80
 (000.635678)  can0  1F3   [8]  00 80 00 FF 01 80 00 00
 (000.636127)  can0  1F5   [8]  02 83 00 00 80 B1 00 00
 (000.639408)  can0  153   [8]  E4 49 00 FF 00 FF FF 80
 (000.640604)  can0  1F0   [8]  09 00 09 00 09 00 09 00
 (000.642243)  can0  316   [8]  05 00 00 00 93 29 00 B4
 (000.643293)  can0  545   [8]  12 00 00 00 00 01 00 00
 (000.644487)  can0  1F5   [8]  02 83 00 00 80 C1 00 00
 (000.646404)  can0  153   [8]  E4 49 00 FF 00 FF FF 80
 (000.647598)  can0  1F0   [8]  09 20 09 00 09 00 09 00
 (000.649239)  can0  1F3   [8]  00 80 00 FF 01 80 00 00
 (000.650429)  can0  338   [8]  00 00 00 00 00 00 00 00
 (000.652064)  can0  329   [8]  40 6F D0 01 00 00 00 00
 (000.653119)  can0  545   [8]  12 00 00 00 00 01 00 00
 (000.654167)  can0  1F5   [8]  02 83 00 00 80 D1 00 00
 (000.655371)  can0  1F3   [8]  00 80 00 FF 01 80 00 00
 (000.660046)  can0  338   [8]  00 00 00 00 00 00 00 00
 (000.661089)  can0  316   [8]  05 00 00 00 93 29 00 B4
 (000.662886)  can0  1F0   [8]  09 60 09 00 09 00 09 00
 (000.663329)  can0  1F3   [8]  00 80 00 FF 01 80 00 00
 (000.664370)  can0  1F5   [8]  02 83 00 00 80 E1 00 00
 (000.667435)  can0  153   [8]  E4 49 00 FF 00 FF FF 80
 (000.668640)  can0  1F0   [8]  09 00 09 00 09 00 09 00
 (000.670286)  can0  1F3   [8]  00 80 00 FF 01 80 00 00
 (000.671339)  can0  338   [8]  00 00 00 00 00 00 00 00
 (000.673009)  can0  1F5   [8]  02 83 00 00 80 F1 96 04
 (000.674369)  can0  153   [8]  E4 49 00 FF 00 FF FF 80
 (000.675568)  can0  1F0   [8]  09 20 09 00 09 00 09 00
 (000.677391)  can0  1F3   [8]  00 80 00 FF 01 80 00 00
 (000.679467)  can0  338   [8]  00 00 00 00 00 00 00 00
 (000.680714)  can0  316   [8]  05 00 00 00 93 29 00 B4
 (000.682360)  can0  545   [8]  12 00 00 00 00 01 00 00
 (000.683413)  can0  153   [8]  E4 49 00 FF 00 FF FF 80
 (000.684484)  can0  1F3   [8]  00 80 00 FF 01 80 00 00
 (000.688422)  can0  153   [8]  E4 49 00 FF 00 FF FF 80
 (000.689626)  can0  1F0   [8]  09 60 09 00 09 00 09 00
 (000.691266)  can0  1F3   [8]  00 80 00 FF 01 80 00 00
 (000.692333)  can0  545   [8]  12 00 00 00 00 01 00 00
 (000.695437)  can0  153   [8]  E4 49 00 FF 00 FF FF 80
 (000.696632)  can0  1F0   [8]  09 00 09 00 09 00 09 00
 (000.698280)  can0  1F3   [8]  00 80 00 FF 01 80 00 00
 (000.699495)  can0  338   [8]  00 00 00 00 00 00 00 00
 (000.700694)  can0  1F5   [8]  02 83 00 00 80 21 00 00
 (000.701460)  can0  545   [8]  12 00 00 00 00 01 00 00
 (000.703421)  can0  153   [8]  E4 49 00 FF 00 FF FF 80
 (000.703869)  can0  1F0   [8]  09 20 09 00 09 00 09 00
 (000.705531)  can0  1F3   [8]  00 80 00 FF 01 80 00 00
 (000.707170)  can0  1F5   [8]  02 83 00 00 80 31 00 00
 (000.709440)  can0  153   [8]  E4 49 00 FF 00 FF FF 80
 (000.710633)  can0  1F0   [8]  09 40 09 00 09 00 09 00
 (000.712274)  can0  316   [8]  05 00 00 00 93 29 00 B4
 (000.713330)  can0  545   [8]  12 00 00 00 00 01 00 00
 (000.716437)  can0  153   [8]  E4 49 00 FF 00 FF FF 80
 (000.717637)  can0  1F0   [8]  09 60 09 00 09 00 09 00
 (000.719279)  can0  1F3   [8]  00 80 00 FF 01 80 00 00
 (000.720335)  can0  1F5   [8]  02 83 00 00 80 41 00 00
 (000.721392)  can0  329   [8]  80 6F D0 01 00 00 00 00
 (000.721841)  can0  545   [8]  12 00 00 00 00 01 00 00
 (000.723663)  can0  153   [8]  E4 49 00 FF 00 FF FF 80
 (000.724718)  can0  1F0   [8]  09 00 09 00 09 00 09 00
 (000.725624)  can0  1F3   [8]  00 80 00 FF 01 80 00 00
 (000.726860)  can0  1F5   [8]  02 83 00 00 80 51 00 00
 (000.729453)  can0  338   [8]  00 00 00 00 00 00 00 00
 (000.730657)  can0  316   [8]  05 00 00 00 93 29 00 B4
 (000.732296)  can0  545   [8]  12 00 00 00 00 01 00 00
 (000.733346)  can0  1F3   [8]  00 80 00 FF 01 80 00 00
 (000.735497)  can0  1F5   [8]  02 83 00 00 80 61 00 00
 (000.737442)  can0  153   [8]  E4 49 00 FF 00 FF FF 80
 (000.738724)  can0  1F0   [8]  09 40 09 00 09 00 09 00
 (000.740382)  can0  1F3   [8]  00 80 00 FF 01 80 00 00
 (000.741437)  can0  338   [8]  00 00 00 00 00 00 00 00
 (000.743389)  can0  545   [8]  12 00 00 00 00 01 00 00
 (000.744332)  can0  1F5   [8]  02 83 00 00 80 71 FB 7D
 (000.745397)  can0  153   [8]  E4 49 00 FF 00 FF FF 80
 (000.745848)  can0  1F3   [8]  00 80 00 FF 01 80 00 00
 (000.749530)  can0  338   [8]  00 00 00 00 00 00 00 00
 (000.750729)  can0  316   [8]  05 00 00 00 93 29 00 B4
 (000.752373)  can0  545   [8]  12 00 00 00 00 01 00 00
 (000.753429)  can0  153   [8]  E4 49 00 FF 00 FF FF 80
 (000.754626)  can0  1F3   [8]  00 80 00 FF 01 80 00 00
 (000.755683)  can0  1F5   [8]  02 83 00 00 80 81 00 00
 (000.758464)  can0  153   [8]  E4 49 00 FF 00 FF FF 80
 (000.759663)  can0  1F0   [8]  09 20 09 00 09 00 09 00
 (000.761302)  can0  1F3   [8]  00 80 00 FF 01 80 00 00
 (000.762360)  can0  545   [8]  12 00 00 00 00 01 00 00
 (000.763414)  can0  1F5   [8]  02 83 00 00 80 91 00 00
 (000.766109)  can0  153   [8]  E4 49 00 FF 00 FF FF 80
 (000.767333)  can0  1F0   [8]  09 40 09 00 09 00 09 00
 (000.768990)  can0  1F3   [8]  00 80 00 FF 01 80 00 00
 (000.770261)  can0  338   [8]  00 00 00 00 00 00 00 00
 (000.771322)  can0  316   [8]  05 00 00 00 93 29 00 B4
 (000.771773)  can0  545   [8]  12 00 00 00 00 01 00 00
 (000.773775)  can0  1F5   [8]  02 83 00 00 80 A1 00 00
 (000.774541)  can0  153   [8]  E4 49 00 FF 00 FF FF 80
 (000.775753)  can0  1F3   [8]  00 80 00 FF 01 80 00 00
 (000.779455)  can0  338   [8]  00 00 00 00 00 00 00 00
 (000.780665)  can0  153   [8]  E4 49 00 FF 00 FF FF 80
 (000.782499)  can0  1F3   [8]  00 80 00 FF 01 80 00 00
 (000.783405)  can0  545   [8]  12 00 00 00 00 01 00 00
 (000.786482)  can0  153   [8]  E4 49 00 FF 00 FF FF 80
 (000.787684)  can0  1F0   [8]  09 20 09 00 09 00 09 00
 (000.789325)  can0  1F3   [8]  00 80 00 FF 01 80 00 00
 (000.790519)  can0  338   [8]  00 00 00 00 00 00 00 00
 (000.792164)  can0  329   [8]  D1 6F D0 01 00 00 00 00
 (000.793218)  can0  545   [8]  12 00 00 00 00 01 00 00
 (000.794425)  can0  153   [8]  E4 49 00 FF 00 FF FF 80
 (000.795345)  can0  1F3   [8]  00 80 00 FF 01 80 00 00
 (000.798166)  can0  1F5   [8]  02 83 00 00 80 D1 00 00
 (000.800161)  can0  338   [8]  00 00 00 00 00 00 00 00
 (000.801393)  can0  316   [8]  05 00 00 00 93 29 00 B4
 (000.803057)  can0  1F3   [8]  00 80 00 FF 01 80 00 00
 (000.807504)  can0  153   [8]  E4 49 00 FF 00 FF FF 80
 (000.808701)  can0  1F0   [8]  09 00 09 00 09 00 09 00
 (000.810342)  can0  1F3   [8]  00 80 00 FF 01 80 00 00
 (000.811400)  can0  338   [8]  00 00 00 00 00 00 00 00
 (000.813352)  can0  545   [8]  12 00 00 00 00 01 00 00
 (000.814414)  can0  153   [8]  E4 49 00 FF 00 FF FF 80
 (000.815605)  can0  1F0   [8]  09 20 09 00 09 00 09 00
 (000.817225)  can0  613   [8]  87 7E 0A DB 2C 00 00 00
 (000.818269)  can0  615   [8]  00 00 00 11 03 00 00 00
 (000.819312)  can0  1F5   [8]  02 83 00 00 80 F1 96 04
 (000.820510)  can0  338   [8]  00 00 00 00 00 00 00 00
 (000.822141)  can0  329   [8]  D1 6F D0 01 00 00 00 00
 (000.822584)  can0  545   [8]  12 00 00 00 00 01 00 00
 (000.824369)  can0  1F3   [8]  00 80 00 FF 01 80 00 00
 (000.826608)  can0  1F5   [8]  02 83 00 00 80 01 00 00
 (000.828506)  can0  153   [8]  E4 49 00 FF 00 FF FF 80
 (000.829709)  can0  1F0   [8]  09 60 09 00 09 00 09 00
 (000.831348)  can0  1F3   [8]  00 80 00 FF 01 80 00 00
 (000.832404)  can0  545   [8]  12 00 00 00 00 01 00 00
 (000.834668)  can0  1F5   [8]  02 83 00 00 80 11 00 00
 (000.835862)  can0  1F0   [8]  09 00 09 00 09 00 09 00
 (000.837138)  can0  153   [8]  E4 49 00 FF 00 FF FF 80
 (000.837933)  can0  1F3   [8]  00 80 00 FF 01 80 00 08
 (000.839769)  can0  338   [8]  00 00 00 00 00 00 00 00
 (000.841295)  can0  316   [8]  05 00 00 00 93 29 00 B5
 (000.843421)  can0  545   [8]  12 00 00 00 00 01 00 00
 (000.843871)  can0  153   [8]  E4 49 00 FF 00 FF FF 80
 (000.845532)  can0  1F3   [8]  00 80 00 FF 01 80 00 08
 (000.845980)  can0  1F5   [8]  02 83 00 00 80 21 00 00
 (000.849454)  can0  338   [8]  00 00 00 00 00 00 00 00
 (000.850656)  can0  153   [8]  E4 49 00 FF 00 FF FF 80
 (000.852297)  can0  1F3   [8]  00 80 00 FF 01 80 00 08
 (000.853348)  can0  545   [8]  12 00 00 00 00 01 00 00
 (000.854404)  can0  1F5   [8]  02 83 00 00 80 31 00 00
 (000.856793)  can0  153   [8]  E4 49 00 FF 00 FF FF 80
 (000.857834)  can0  1F0   [8]  09 60 09 00 09 00 09 00
 (000.859748)  can0  1F3   [8]  00 80 00 FF 01 80 00 08
 (000.860791)  can0  338   [8]  00 00 00 00 00 00 00 00
 (000.862576)  can0  545   [8]  12 00 00 00 00 01 00 00
 (000.863616)  can0  1F5   [8]  02 83 00 00 80 41 00 00
 (000.864808)  can0  153   [8]  E4 49 00 FF 00 FF FF 80
 (000.865708)  can0  1F3   [8]  00 80 00 FF 01 80 00 08
 (000.869443)  can0  338   [8]  00 00 00 00 00 00 00 00
 (000.870633)  can0  316   [8]  05 00 00 00 93 29 00 B5
 (000.872262)  can0  545   [8]  12 00 00 00 00 01 00 00
 (000.873312)  can0  1F3   [8]  00 80 00 FF 01 80 00 08
 (000.874360)  can0  1F5   [8]  02 83 00 00 80 51 00 00
 (000.877522)  can0  153   [8]  E4 49 00 FF 00 FF FF 80
 (000.878710)  can0  1F0   [8]  09 40 09 00 09 00 09 00
 (000.880338)  can0  1F3   [8]  00 80 00 FF 01 80 00 08
 (000.881390)  can0  338   [8]  00 00 00 00 00 00 00 00
 (000.883338)  can0  545   [8]  12 00 00 00 00 01 00 00
 (000.883787)  can0  1F5   [8]  02 83 00 00 80 61 00 00
 (000.884689)  can0  153   [8]  E4 49 00 FF 00 FF FF 80
 (000.885465)  can0  1F0   [8]  09 60 09 00 09 00 09 00
 (000.886517)  can0  1F3   [8]  00 80 00 FF 01 80 00 08
 (000.889373)  can0  1F5   [8]  02 83 00 00 80 71 FB 7D
 (000.890568)  can0  316   [8]  05 00 00 00 93 29 00 B5
 (000.892205)  can0  338   [8]  00 00 00 00 00 00 00 00
 (000.893255)  can0  545   [8]  12 00 00 00 00 01 00 00
 (000.895199)  can0  1F3   [8]  00 80 00 FF 01 80 00 08
 (000.898536)  can0  153   [8]  E4 49 00 FF 00 FF FF 80
 (000.899725)  can0  1F0   [8]  09 20 09 00 09 00 09 00
 (000.901532)  can0  1F3   [8]  00 80 00 FF 01 80 00 08
 (000.902590)  can0  545   [8]  12 00 00 00 00 01 00 00
 (000.905552)  can0  153   [8]  E4 49 00 FF 00 FF FF 80
 (000.906765)  can0  1F0   [8]  09 40 09 00 09 00 09 00
 (000.908410)  can0  1F3   [8]  00 80 00 FF 01 80 00 08
 (000.909467)  can0  1F5   [8]  02 83 00 00 80 91 00 00
 (000.910525)  can0  338   [8]  00 00 00 00 00 00 00 00
 (000.911733)  can0  545   [8]  12 00 00 00 00 01 00 00
 (000.913394)  can0  153   [8]  E4 49 00 FF 00 FF FF 80
 (000.913843)  can0  1F0   [8]  09 60 09 00 09 00 09 00
 (000.915654)  can0  1F3   [8]  00 80 00 FF 01 80 00 08
 (000.917670)  can0  1F5   [8]  02 83 00 00 80 A1 00 00
 (000.919474)  can0  338   [8]  00 00 00 00 00 00 00 00
 (000.920673)  can0  153   [8]  E4 49 00 FF 00 FF FF 80
 (000.922317)  can0  1F3   [8]  00 80 00 FF 01 80 00 08
 (000.923372)  can0  545   [8]  12 00 00 00 00 01 00 00
 (000.925733)  can0  1F5   [8]  02 83 00 00 80 B1 00 00
 (000.926962)  can0  1F0   [8]  09 20 09 00 09 00 09 00
 (000.928735)  can0  153   [8]  E4 49 00 FF 00 FF FF 80
 (000.929780)  can0  1F3   [8]  00 80 00 FF 01 80 00 08
 (000.930982)  can0  338   [8]  00 00 00 00 00 00 00 00
 (000.931430)  can0  545   [8]  12 00 00 00 00 01 00 00
 (000.933822)  can0  153   [8]  E4 49 00 FF 00 FF FF 80
 (000.934864)  can0  1F0   [8]  09 40 09 00 09 00 09 00
 (000.935916)  can0  1F3   [8]  00 80 00 FF 01 80 00 08
 (000.936702)  can0  1F5   [8]  02 83 00 00 80 C1 00 00
 (000.939448)  can0  338   [8]  00 00 00 00 00 00 00 00
 (000.940632)  can0  316   [8]  05 00 00 00 93 29 00 B5
 (000.942264)  can0  545   [8]  12 00 00 00 00 01 00 00
 (000.943303)  can0  1F3   [8]  00 80 00 FF 01 80 00 08
 (000.944346)  can0  1F5   [8]  02 83 00 00 80 D1 00 00
 (000.947581)  can0  153   [8]  E4 49 00 FF 00 FF FF 80
 (000.948753)  can0  1F0   [8]  09 00 09 00 09 00 09 00
 (000.950361)  can0  1F3   [8]  00 80 00 FF 01 80 00 08
 (000.951392)  can0  338   [8]  00 00 00 00 00 00 00 00
 (000.953293)  can0  545   [8]  12 00 00 00 00 01 00 00
 (000.954169)  can0  1F5   [8]  02 83 00 00 80 E1 00 00
 (000.955196)  can0  153   [8]  E4 49 00 FF 00 FF FF 80
 (000.956240)  can0  1F0   [8]  09 20 09 00 09 00 09 00
 (000.958017)  can0  1F3   [8]  00 80 00 FF 01 80 00 08
 (000.959439)  can0  338   [8]  00 00 00 00 00 00 00 00
 (000.960623)  can0  316   [8]  05 00 00 00 93 29 00 B5
 (000.962252)  can0  545   [8]  12 00 00 00 00 01 00 00
 (000.963295)  can0  153   [8]  E4 49 00 FF 00 FF FF 80
 (000.964929)  can0  1F5   [8]  02 83 00 00 80 F1 96 04
 (000.968572)  can0  153   [8]  E4 49 00 FF 00 FF FF 80
 (000.969739)  can0  1F0   [8]  09 60 09 00 09 00 09 00
 (000.971345)  can0  1F3   [8]  00 80 00 FF 01 80 00 08
 (000.972378)  can0  545   [8]  12 00 00 00 00 01 00 00
 (000.973409)  can0  1F5   [8]  02 83 00 00 80 01 00 00
 (000.975614)  can0  153   [8]  E4 49 00 FF 00 FF FF 80
 (000.976798)  can0  1F0   [8]  09 00 09 00 09 00 09 00
 (000.978430)  can0  1F3   [8]  00 80 00 FF 01 80 00 08
 (000.980353)  can0  338   [8]  00 00 00 00 00 00 00 00
 (000.981106)  can0  316   [8]  05 00 00 00 93 29 00 B5
 (000.982293)  can0  1F5   [8]  02 83 00 00 80 11 00 00
 (000.983333)  can0  153   [8]  E4 49 00 FF 00 FF FF 80
 (000.985264)  can0  1F3   [8]  00 80 00 FF 01 80 00 08
 (000.989439)  can0  338   [8]  00 00 00 00 00 00 00 00
 (000.990627)  can0  153   [8]  E4 49 00 FF 00 FF FF 80
 (000.992259)  can0  1F3   [8]  00 80 00 FF 01 80 00 08
 (000.993298)  can0  545   [8]  12 00 00 00 00 01 00 00
 (000.996598)  can0  153   [8]  E4 49 00 FF 00 FF FF 80
 (000.997781)  can0  1F0   [8]  09 60 09 00 09 00 09 00
 (000.999412)  can0  1F3   [8]  00 80 00 FF 01 80 00 08
 (001.000470)  can0  1F5   [8]  02 83 00 00 80 31 00 00
 (001.002281)  can0  545   [8]  12 00 00 00 00 01 00 00
 (001.004232)  can0  153   [8]  E4 49 00 FF 00 FF FF 80
 (001.005436)  can0  1F0   [8]  09 00 09 00 09 00 09 00
 (001.007270)  can0  1F3   [8]  00 80 00 FF 01 80 00 08
 (001.009428)  can0  1F5   [8]  02 83 00 00 80 41 00 00
 (001.010482)  can0  338   [8]  00 00 00 00 00 00 00 00
 (001.011381)  can0  545   [8]  12 00 00 00 00 01 00 00
 (001.012434)  can0  1F3   [8]  00 80 00 FF 01 80 00 08
 (001.014533)  can0  613   [8]  87 7E 0A DB 2C 00 00 00
 (001.015728)  can0  615   [8]  00 00 00 11 03 00 00 00
 (001.016934)  can0  1F5   [8]  02 83 00 00 80 51 00 00
 (001.018114)  can0  1F0   [8]  09 40 09 00 09 00 09 00
 (001.019870)  can0  153   [8]  E4 49 00 FF 00 FF FF 80
 (001.020905)  can0  1F3   [8]  00 80 00 FF 01 80 00 08
 (001.022677)  can0  545   [8]  12 00 00 00 00 01 00 00
 (001.025197)  can0  153   [8]  E4 49 00 FF 00 FF FF 80
 (001.026258)  can0  1F0   [8]  09 60 09 00 09 00 09 00
 (001.028072)  can0  1F3   [8]  00 80 00 FF 01 80 00 08
 (001.029148)  can0  1F5   [8]  02 83 00 00 80 61 00 00
 (001.030357)  can0  338   [8]  00 00 00 00 00 00 00 00
 (001.031579)  can0  329   [8]  84 6F D0 01 00 00 00 00
 (001.033711)  can0  545   [8]  12 00 00 00 00 01 00 00
 (001.034164)  can0  1F3   [8]  00 80 00 FF 01 80 00 08
 (001.035078)  can0  1F5   [8]  02 83 00 00 80 71 FB 7D
 (001.038611)  can0  153   [8]  E4 49 00 FF 00 FF FF 80
 (001.039810)  can0  1F0   [8]  09 20 09 00 09 00 09 00
 (001.041434)  can0  338   [8]  00 00 00 00 00 00 00 00
 (001.042487)  can0  545   [8]  12 00 00 00 00 01 00 00
 (001.044899)  can0  1F5   [8]  02 83 00 00 80 81 00 00
 (001.046098)  can0  1F0   [8]  09 40 09 00 09 00 09 00
 (001.047894)  can0  153   [8]  E4 49 00 FF 00 FF FF 80
 (001.048958)  can0  1F3   [8]  00 80 00 FF 01 80 00 08
 (001.050169)  can0  338   [8]  00 00 00 00 00 00 00 00
 (001.051378)  can0  316   [8]  05 00 00 00 93 29 00 B5
 (001.053204)  can0  545   [8]  12 00 00 00 00 01 00 00
 (001.053654)  can0  153   [8]  E4 49 00 FF 00 FF FF 80
 (001.055638)  can0  1F5   [8]  02 83 00 00 80 91 00 00
 (001.059421)  can0  338   [8]  00 00 00 00 00 00 00 00
 (001.060612)  can0  153   [8]  E4 49 00 FF 00 FF FF 80
 (001.062240)  can0  1F3   [8]  00 80 00 FF 01 80 00 08
 (001.063290)  can0  545   [8]  12 00 00 00 00 01 00 00
 (001.064350)  can0  1F5   [8]  02 83 00 00 80 A1 00 00
 (001.066724)  can0  153   [8]  E4 49 00 FF 00 FF FF 80
 (001.067943)  can0  1F0   [8]  09 20 09 00 09 00 09 00
 (001.069595)  can0  1F3   [8]  00 80 00 FF 01 80 00 08
 (001.070646)  can0  338   [8]  00 00 00 00 00 00 00 00
 (001.072300)  can0  545   [8]  12 00 00 00 00 01 00 00
 (001.072747)  can0  1F5   [8]  02 83 00 00 80 B1 00 00
 (001.073941)  can0  153   [8]  E4 49 00 FF 00 FF FF 80
 (001.074844)  can0  1F0   [8]  09 40 09 00 09 00 09 00
 (001.076048)  can0  1F3   [8]  00 80 00 FF 01 80 00 08
 (001.079451)  can0  338   [8]  00 00 00 00 00 00 00 00
 (001.080656)  can0  316   [8]  05 00 00 00 93 29 00 B5
 (001.082323)  can0  545   [8]  12 00 00 00 00 01 00 00
 (001.083377)  can0  1F3   [8]  00 80 00 FF 01 80 00 08
 (001.084438)  can0  1F5   [8]  02 83 00 00 80 C1 00 00
 (001.087670)  can0  153   [8]  E4 49 00 FF 00 FF FF 80
 (001.088875)  can0  1F0   [8]  09 00 09 00 09 00 09 00
 (001.090706)  can0  1F3   [8]  00 80 00 FF 01 80 00 08
 (001.091601)  can0  316   [8]  05 00 00 00 93 29 00 B5
 (001.093123)  can0  545   [8]  12 00 00 00 00 01 00 00
 (001.095194)  can0  153   [8]  E4 49 00 FF 00 FF FF 80
 (001.096243)  can0  1F0   [8]  09 20 09 00 09 00 09 00
 (001.098072)  can0  1F3   [8]  00 80 00 FF 01 80 00 08
 (001.099454)  can0  338   [8]  00 00 00 00 00 00 00 00
 (001.100673)  can0  316   [8]  05 00 00 00 93 29 00 B5
 (001.102493)  can0  329   [8]  D1 6F D0 01 00 00 00 00
 (001.103858)  can0  545   [8]  12 00 00 00 00 01 00 00
 (001.104947)  can0  1F3   [8]  00 80 00 FF 01 80 00 08
 (001.107836)  can0  1F5   [8]  02 83 00 00 80 F1 96 04
 (001.109056)  can0  1F0   [8]  09 60 09 00 09 00 09 00
 (001.110719)  can0  153   [8]  E4 49 00 FF 00 FF FF 80
 (001.111169)  can0  316   [8]  05 00 00 00 93 29 00 B5
 (001.113159)  can0  545   [8]  12 00 00 00 00 01 00 00
 (001.115672)  can0  153   [8]  E4 49 00 FF 00 FF FF 80
 (001.116881)  can0  1F0   [8]  09 00 09 00 09 00 09 00
 (001.118709)  can0  1F3   [8]  00 80 00 FF 01 80 00 08
 (001.120080)  can0  1F5   [8]  02 83 00 00 80 01 00 00
 (001.121302)  can0  338   [8]  00 00 00 00 00 00 00 00
 (001.121755)  can0  545   [8]  12 00 00 00 00 01 00 00
 (001.123579)  can0  153   [8]  E4 49 00 FF 00 FF FF 80
 (001.124950)  can0  1F0   [8]  09 20 09 00 09 00 09 00
 (001.125874)  can0  1F3   [8]  00 80 00 FF 01 80 00 08
 (001.126944)  can0  1F5   [8]  02 83 00 00 80 11 00 00
 (001.129500)  can0  338   [8]  00 00 00 00 00 00 00 00
 (001.130742)  can0  153   [8]  E4 49 00 FF 00 FF FF 80
 (001.132386)  can0  1F3   [8]  00 80 00 FF 01 80 00 08
 (001.133440)  can0  545   [8]  12 00 00 00 00 01 00 00
 (001.135871)  can0  1F5   [8]  02 83 00 00 80 21 00 00
 (001.137102)  can0  1F0   [8]  09 60 09 00 09 00 09 00
 (001.138898)  can0  153   [8]  E4 49 00 FF 00 FF FF 80
 (001.139950)  can0  1F3   [8]  00 80 00 FF 01 80 00 08
 (001.141182)  can0  316   [8]  05 00 00 00 93 29 00 B5
 (001.142090)  can0  545   [8]  12 00 00 00 00 01 00 00
 (001.143767)  can0  153   [8]  E4 49 00 FF 00 FF FF 80
 (001.144965)  can0  1F0   [8]  09 00 09 00 09 00 09 00
 (001.146641)  can0  1F3   [8]  00 80 00 FF 01 80 00 08
 (001.147698)  can0  1F5   [8]  02 83 00 00 80 31 00 00
 (001.149435)  can0  338   [8]  00 00 00 00 00 00 00 00
 (001.150630)  can0  316   [8]  05 00 00 00 93 29 00 B5
 (001.152270)  can0  545   [8]  12 00 00 00 00 01 00 00
 (001.153324)  can0  1F3   [8]  00 80 00 FF 01 80 00 08
 (001.154521)  can0  1F5   [8]  02 83 00 00 80 41 00 00
 (001.157698)  can0  153   [8]  E4 49 00 FF 00 FF FF 80
 (001.158899)  can0  1F0   [8]  09 40 09 00 09 00 09 00
 (001.160546)  can0  1F3   [8]  00 80 00 FF 01 80 00 08
 (001.161597)  can0  316   [8]  05 00 00 00 93 29 00 B5
 (001.162793)  can0  545   [8]  12 00 00 00 00 01 00 00
 (001.163846)  can0  1F5   [8]  02 83 00 00 80 51 00 00
 (001.164902)  can0  153   [8]  E4 49 00 FF 00 FF FF 80
 (001.165807)  can0  1F0   [8]  09 60 09 00 09 00 09 00
 (001.167053)  can0  1F3   [8]  00 80 00 FF 01 80 00 08
 (001.169433)  can0  338   [8]  00 00 00 00 00 00 00 00
 (001.170625)  can0  316   [8]  05 00 00 00 93 29 00 B5
 (001.172264)  can0  545   [8]  12 00 00 00 00 01 00 00
 (001.173318)  can0  153   [8]  E4 49 00 FF 00 FF FF 80
 (001.174977)  can0  1F5   [8]  02 83 00 00 80 61 00 00
 (001.178692)  can0  153   [8]  E4 49 00 FF 00 FF FF 80
 (001.179872)  can0  1F0   [8]  09 20 09 00 09 00 09 00
 (001.181480)  can0  338   [8]  00 00 00 00 00 00 00 00
 (001.182520)  can0  545   [8]  12 00 00 00 00 01 00 00
 (001.183558)  can0  1F5   [8]  02 83 00 00 80 71 FB 7D
 (001.185697)  can0  153   [8]  E4 49 00 FF 00 FF FF 80
 (001.186893)  can0  1F0   [8]  09 40 09 00 09 00 09 00
 (001.188530)  can0  1F3   [8]  00 80 00 FF 01 80 00 08
 (001.189724)  can0  316   [8]  05 00 00 00 93 29 00 B5
 (001.190919)  can0  338   [8]  00 00 00 00 00 00 00 00
 (001.191677)  can0  545   [8]  12 00 00 00 00 01 00 00
 (001.193626)  can0  1F5   [8]  02 83 00 00 80 81 00 00
 (001.194074)  can0  153   [8]  E4 49 00 FF 00 FF FF 80
 (001.195860)  can0  1F3   [8]  00 80 00 FF 01 80 00 08
 (001.198830)  can0  1F5   [8]  02 83 00 00 80 91 00 00
 (001.200008)  can0  316   [8]  05 00 00 00 93 29 00 B5
 (001.201949)  can0  338   [8]  00 00 00 00 00 00 00 00
 (001.202863)  can0  329   [8]  40 6F D0 01 00 00 00 00
 (001.203758)  can0  545   [8]  12 00 00 00 00 01 00 00
 (001.206723)  can0  153   [8]  E4 49 00 FF 00 FF FF 80
 (001.207918)  can0  1F0   [8]  09 20 09 00 09 00 09 00
 (001.209706)  can0  1F3   [8]  00 80 00 FF 01 80 00 08
 (001.211058)  can0  1F5   [8]  02 83 00 00 80 A1 00 00
 (001.212833)  can0  545   [8]  12 00 00 00 00 01 00 00
 (001.214470)  can0  153   [8]  E4 49 00 FF 00 FF FF 80
 (001.215668)  can0  1F0   [8]  09 40 09 00 09 00 09 00
 (001.217758)  can0  615   [8]  00 00 00 11 03 00 00 00
 (001.218806)  can0  1F5   [8]  02 83 00 00 80 B1 00 00
 (001.220155)  can0  338   [8]  00 00 00 00 00 00 00 00
 (001.221403)  can0  316   [8]  05 00 00 00 93 29 00 B5
 (001.223066)  can0  1F0   [8]  09 60 09 00 09 00 09 00
 (001.223514)  can0  1F3   [8]  00 80 00 FF 01 80 00 08
 (001.226892)  can0  1F5   [8]  02 83 00 00 80 C1 00 00
 (001.228089)  can0  1F0   [8]  09 00 09 00 09 00 09 00
 (001.229273)  can0  153   [8]  E4 49 00 FF 00 FF FF 80
 (001.230061)  can0  1F3   [8]  00 80 00 FF 01 80 00 08
 (001.232025)  can0  329   [8]  40 6F D0 01 00 00 00 00
 (001.232508)  can0  545   [8]  12 00 00 00 00 01 00 00
 (001.234723)  can0  153   [8]  E4 49 00 FF 00 FF FF 80
 (001.235961)  can0  1F0   [8]  09 20 09 00 09 00 09 00
 (001.237806)  can0  1F3   [8]  00 80 00 FF 01 80 00 08
 (001.238709)  can0  1F5   [8]  02 83 00 00 80 D1 00 00
 (001.239775)  can0  338   [8]  00 00 00 00 00 00 00 00
 (001.240681)  can0  316   [8]  05 00 00 00 93 29 00 B5
 (001.241737)  can0  545   [8]  12 00 00 00 00 01 00 00
 (001.242960)  can0  153   [8]  E4 49 00 FF 00 FF FF 80
 (001.244640)  can0  1F3   [8]  00 80 00 FF 01 80 00 08
 (001.246019)  can0  1F5   [8]  02 83 00 00 80 E1 00 00
 (001.248731)  can0  153   [8]  E4 49 00 FF 00 FF FF 80
 (001.249926)  can0  1F0   [8]  09 60 09 00 09 00 09 00
 (001.251564)  can0  338   [8]  00 00 00 00 00 00 00 00
 (001.252612)  can0  545   [8]  12 00 00 00 00 01 00 00
 (001.253807)  can0  1F5   [8]  02 83 00 00 80 F1 96 04
 (001.255752)  can0  153   [8]  E4 49 00 FF 00 FF FF 80
 (001.257006)  can0  1F0   [8]  09 00 09 00 09 00 09 00
 (001.258653)  can0  1F3   [8]  00 80 00 FF 01 80 00 08
 (001.259848)  can0  316   [8]  05 00 00 00 93 29 00 B5
 (001.261640)  can0  338   [8]  00 00 00 00 00 00 00 00
 (001.262694)  can0  545   [8]  12 00 00 00 00 01 00 00
 (001.263753)  can0  153   [8]  E4 49 00 FF 00 FF FF 80
 (001.264200)  can0  1F3   [8]  00 80 00 FF 01 80 00 08
 (001.266150)  can0  1F5   [8]  02 83 00 00 80 01 00 00
 (001.269421)  can0  338   [8]  00 00 00 00 00 00 00 00
 (001.270612)  can0  316   [8]  05 00 00 00 93 29 00 B5
 (001.272249)  can0  1F0   [8]  09 40 09 00 09 00 09 00
 (001.273301)  can0  545   [8]  12 00 00 00 00 01 00 00
 (001.274492)  can0  1F5   [8]  02 83 00 00 80 11 00 00
 (001.276746)  can0  153   [8]  E4 49 00 FF 00 FF FF 80
 (001.277925)  can0  1F0   [8]  09 60 09 00 09 00 09 00
 (001.279537)  can0  1F3   [8]  00 80 00 FF 01 80 00 08
 (001.280578)  can0  338   [8]  00 00 00 00 00 00 00 00
 (001.281754)  can0  545   [8]  12 00 00 00 00 01 00 00
 (001.282501)  can0  1F5   [8]  02 83 00 00 80 21 00 00
 (001.283820)  can0  153   [8]  E4 49 00 FF 00 FF FF 80
 (001.284852)  can0  1F0   [8]  09 00 09 00 09 00 09 00
 (001.286774)  can0  1F3   [8]  00 80 00 FF 01 80 00 08
 (001.290081)  can0  338   [8]  00 00 00 00 00 00 00 00
 (001.291137)  can0  316   [8]  05 00 00 00 93 29 00 B5
 (001.292943)  can0  153   [8]  E4 49 00 FF 00 FF FF 80
 (001.293391)  can0  1F3   [8]  00 80 00 FF 01 80 00 08
 (001.297781)  can0  153   [8]  E4 49 00 FF 00 FF FF 80
 (001.298981)  can0  1F0   [8]  09 40 09 00 09 00 09 00
 (001.300639)  can0  1F3   [8]  00 80 00 FF 01 80 00 08
 (001.301692)  can0  316   [8]  05 00 00 00 93 29 00 B5
 (001.303642)  can0  545   [8]  12 00 00 00 00 01 00 00
 (001.304705)  can0  153   [8]  E4 49 00 FF 00 FF FF 80
 (001.305909)  can0  1F0   [8]  09 60 09 00 09 00 09 00
 (001.307569)  can0  1F3   [8]  00 80 00 FF 01 80 00 08
 (001.308768)  can0  1F5   [8]  02 83 00 00 80 51 00 00
 (001.309817)  can0  338   [8]  00 00 00 00 00 00 00 00
 (001.310872)  can0  316   [8]  05 00 00 00 93 29 00 B5
 (001.312540)  can0  545   [8]  12 00 00 00 00 01 00 00
 (001.312991)  can0  153   [8]  E4 49 00 FF 00 FF FF 80
 (001.314931)  can0  1F3   [8]  00 80 00 FF 01 80 00 08
 (001.317934)  can0  1F5   [8]  02 83 00 00 80 61 00 00
 (001.319131)  can0  1F0   [8]  09 20 09 00 09 00 09 00
 (001.320332)  can0  153   [8]  E4 49 00 FF 00 FF FF 80
 (001.321095)  can0  329   [8]  84 6F D0 01 00 00 00 00
 (001.323048)  can0  545   [8]  12 00 00 00 00 01 00 00
 (001.325791)  can0  153   [8]  E4 49 00 FF 00 FF FF 80
 (001.326992)  can0  1F0   [8]  09 40 09 00 09 00 09 00
 (001.328605)  can0  1F3   [8]  00 80 00 FF 01 80 00 08
 (001.329649)  can0  1F5   [8]  02 83 00 00 80 71 FB 7D
 (001.330837)  can0  338   [8]  00 00 00 00 00 00 00 00
 (001.331282)  can0  545   [8]  12 00 00 00 00 01 00 00
 (001.333083)  can0  153   [8]  E4 49 00 FF 00 FF FF 80
 (001.333979)  can0  1F0   [8]  09 60 09 00 09 00 09 00
 (001.335181)  can0  1F3   [8]  00 80 00 FF 01 80 00 08
 (001.336866)  can0  1F5   [8]  02 83 00 00 80 81 00 00
 (001.339419)  can0  338   [8]  00 00 00 00 00 00 00 00
 (001.340622)  can0  316   [8]  05 00 00 00 93 29 00 B5
 (001.342264)  can0  1F0   [8]  09 00 09 00 09 00 09 00
 (001.343318)  can0  545   [8]  12 00 00 00 00 01 00 00
 (001.344707)  can0  1F5   [8]  02 83 00 00 80 91 00 00
 (001.346809)  can0  153   [8]  E4 49 00 FF 00 FF FF 80
 (001.348010)  can0  1F0   [8]  09 20 09 00 09 00 09 00
 (001.349650)  can0  1F3   [8]  00 80 00 FF 01 80 00 08
 (001.350701)  can0  338   [8]  00 00 00 00 00 00 00 00
 (001.352358)  can0  545   [8]  12 00 00 00 00 01 00 00
 (001.354454)  can0  153   [8]  E4 49 00 FF 00 FF FF 80
 (001.355660)  can0  1F0   [8]  09 40 09 00 09 00 09 00
 (001.357320)  can0  1F5   [8]  02 83 00 00 80 A1 00 00
 (001.359480)  can0  338   [8]  00 00 00 00 00 00 00 00
 (001.360675)  can0  316   [8]  05 00 00 00 93 29 00 B5
 (001.362321)  can0  545   [8]  12 00 00 00 00 01 00 00
 (001.363373)  can0  1F3   [8]  00 80 00 FF 01 80 00 08
 (001.364427)  can0  1F5   [8]  02 83 00 00 80 B1 00 00
 (001.367805)  can0  153   [8]  E4 49 00 FF 00 FF FF 80
 (001.368991)  can0  1F0   [8]  09 00 09 00 09 00 09 00
 (001.370605)  can0  1F3   [8]  00 80 00 FF 01 80 00 08
 (001.371641)  can0  316   [8]  05 00 00 00 93 29 00 B5
 (001.372680)  can0  545   [8]  12 00 00 00 00 01 00 00
 (001.373861)  can0  1F5   [8]  02 83 00 00 80 C1 00 00
 (001.374750)  can0  153   [8]  E4 49 00 FF 00 FF FF 80
 (001.375936)  can0  1F0   [8]  09 20 09 00 09 00 09 00
 (001.377546)  can0  1F3   [8]  00 80 00 FF 01 80 00 08
 (001.379401)  can0  338   [8]  00 00 00 00 00 00 00 00
 (001.380576)  can0  316   [8]  05 00 00 00 93 29 00 B5
 (001.382184)  can0  545   [8]  12 00 00 00 00 01 00 00
 (001.383222)  can0  1F5   [8]  02 83 00 00 80 D1 00 00
 (001.384842)  can0  1F3   [8]  00 80 00 FF 01 80 00 08
 (001.388809)  can0  153   [8]  E4 49 00 FF 00 FF FF 80
 (001.389997)  can0  1F0   [8]  09 60 09 00 09 00 09 00
 (001.391633)  can0  316   [8]  05 00 00 00 93 29 00 B5
 (001.392680)  can0  545   [8]  12 00 00 00 00 01 00 00
 (001.393727)  can0  1F5   [8]  02 83 00 00 80 E1 00 00
 (001.395830)  can0  153   [8]  E4 49 00 FF 00 FF FF 80
 (001.397007)  can0  1F0   [8]  09 00 09 00 09 00 09 00
 (001.398694)  can0  1F3   [8]  00 80 00 FF 01 80 00 08
 (001.399901)  can0  1F5   [8]  02 83 00 00 80 F1 96 04
 (001.402332)  can0  338   [8]  00 00 00 00 00 00 00 00
 (001.403092)  can0  545   [8]  12 00 00 00 00 01 00 00
 (001.404286)  can0  1F0   [8]  09 20 09 00 09 00 09 00
 (001.405343)  can0  1F3   [8]  00 80 00 FF 01 80 00 08
 (001.409566)  can0  1F5   [8]  02 83 00 00 80 01 00 00
 (001.410608)  can0  338   [8]  00 00 00 00 00 00 00 00
 (001.412402)  can0  1F3   [8]  00 80 00 FF 01 80 00 08
 (001.413469)  can0  545   [8]  12 00 00 00 00 01 00 00
 (001.414602)  can0  613   [8]  87 7E 0A DB 2C 00 00 00
 (001.415797)  can0  615   [8]  00 00 00 11 03 00 00 00
 (001.416985)  can0  153   [8]  E4 49 00 FF 00 FF FF 80
 (001.417884)  can0  1F0   [8]  09 60 09 00 09 00 09 00
 (001.419068)  can0  1F3   [8]  00 80 00 FF 01 80 00 08
 (001.419818)  can0  1F5   [8]  02 83 00 00 80 11 00 00
 (001.421737)  can0  329   [8]  11 6F D0 01 00 00 00 00
 (001.422474)  can0  545   [8]  12 00 00 00 00 01 00 00
 (001.424097)  can0  153   [8]  E4 49 00 FF 00 FF FF 80
 (001.425139)  can0  1F0   [8]  09 00 09 00 09 00 09 00
 (001.426368)  can0  1F3   [8]  00 80 00 FF 01 80 00 08
 (001.428906)  can0  1F5   [8]  02 83 00 00 80 21 00 00
 (001.430103)  can0  338   [8]  00 00 00 00 00 00 00 00
 (001.431981)  can0  316   [8]  05 00 00 00 93 29 00 B5
 (001.433043)  can0  153   [8]  E4 49 00 FF 00 FF FF 80
 (001.434276)  can0  1F3   [8]  00 80 00 FF 01 80 00 08
 (001.435542)  can0  1F5   [8]  02 83 00 00 80 31 00 00
 (001.437853)  can0  153   [8]  E4 49 00 FF 00 FF FF 80
 (001.439071)  can0  1F0   [8]  09 40 09 00 09 00 09 00
 (001.440884)  can0  1F3   [8]  00 80 00 FF 01 80 00 08
 (001.442248)  can0  329   [8]  11 6F D0 01 00 00 00 00
 (001.443030)  can0  545   [8]  12 00 00 00 00 01 00 00
 (001.444840)  can0  153   [8]  E4 49 00 FF 00 FF FF 80
 (001.446051)  can0  1F0   [8]  09 60 09 00 09 00 09 00
 (001.447864)  can0  1F3   [8]  00 80 00 FF 01 80 00 08
 (001.448927)  can0  1F5   [8]  02 83 00 00 80 41 00 00
 (001.450138)  can0  338   [8]  00 00 00 00 00 00 00 00
 (001.451355)  can0  316   [8]  05 00 00 00 93 29 00 B5
 (001.453474)  can0  545   [8]  12 00 00 00 00 01 00 00
 (001.453923)  can0  1F0   [8]  09 00 09 00 09 00 09 00
 (001.455921)  can0  1F5   [8]  02 83 00 00 80 51 00 00
 (001.458874)  can0  153   [8]  E4 49 00 FF 00 FF FF 80
 (001.460097)  can0  1F0   [8]  09 20 09 00 09 00 09 00
 (001.461909)  can0  316   [8]  05 00 00 00 93 29 00 B5
 (001.462970)  can0  545   [8]  12 00 00 00 00 01 00 00
 (001.463907)  can0  1F5   [8]  02 83 00 00 80 61 00 00
 (001.465861)  can0  153   [8]  E4 49 00 FF 00 FF FF 80
 (001.467105)  can0  1F0   [8]  09 40 09 00 09 00 09 00
 (001.468911)  can0  1F3   [8]  00 80 00 FF 01 80 00 08
 (001.470120)  can0  338   [8]  00 00 00 00 00 00 00 00
 (001.471926)  can0  316   [8]  05 00 00 00 93 29 00 B5
 (001.472989)  can0  545   [8]  12 00 00 00 00 01 00 00
 (001.474813)  can0  1F5   [8]  02 83 00 00 80 71 FB 7D
 (001.475261)  can0  1F3   [8]  00 80 00 FF 01 80 00 08
 (001.479410)  can0  338   [8]  00 00 00 00 00 00 00 00
 (001.480625)  can0  316   [8]  05 00 00 00 93 29 00 B5
 (001.482437)  can0  1F0   [8]  09 00 09 00 09 00 09 00
 (001.483800)  can0  545   [8]  12 00 00 00 00 01 00 00
 (001.484728)  can0  1F5   [8]  02 83 00 00 80 81 00 00
 (001.486876)  can0  153   [8]  E4 49 00 FF 00 FF FF 80
 (001.488070)  can0  1F0   [8]  09 20 09 00 09 00 09 00
 (001.489876)  can0  1F3   [8]  00 80 00 FF 01 80 00 08
 (001.491242)  can0  338   [8]  00 00 00 00 00 00 00 00
 (001.493078)  can0  545   [8]  12 00 00 00 00 01 00 00
 (001.494129)  can0  153   [8]  E4 49 00 FF 00 FF FF 80
 (001.495191)  can0  1F0   [8]  09 40 09 00 09 00 09 00
 (001.496410)  can0  1F3   [8]  00 80 00 FF 01 80 00 08
 (001.499408)  can0  338   [8]  00 00 00 00 00 00 00 00
 (001.500628)  can0  316   [8]  05 00 00 00 93 29 00 B5
 (001.502290)  can0  1F5   [8]  02 83 00 00 80 A1 00 00
 (001.503347)  can0  1F3   [8]  00 80 00 FF 01 80 00 08
 (001.507897)  can0  153   [8]  E4 49 00 FF 00 FF FF 80
 (001.509083)  can0  1F0   [8]  09 00 09 00 09 00 09 00
 (001.510885)  can0  1F3   [8]  00 80 00 FF 01 80 00 08
 (001.512249)  can0  329   [8]  40 70 D0 01 00 00 00 00
 (001.513027)  can0  545   [8]  12 00 00 00 00 01 00 00
 (001.514882)  can0  153   [8]  E4 49 00 FF 00 FF FF 80
 (001.516098)  can0  1F0   [8]  09 20 09 00 09 00 09 00
 (001.517911)  can0  1F3   [8]  00 80 00 FF 01 80 00 08
 (001.519872)  can0  1F5   [8]  02 83 00 00 80 C1 00 00
 (001.521387)  can0  338   [8]  00 00 00 00 00 00 00 00
 (001.523219)  can0  545   [8]  12 00 00 00 00 01 00 00
 (001.524314)  can0  1F0   [8]  09 40 09 00 09 00 09 00
 (001.525666)  can0  1F3   [8]  00 80 00 FF 01 80 00 08
 (001.527354)  can0  1F5   [8]  02 83 00 00 80 D1 00 00
 (001.529004)  can0  153   [8]  E4 49 00 FF 00 FF FF 80
 (001.530210)  can0  1F0   [8]  09 60 09 00 09 00 09 00
 (001.532941)  can0  316   [8]  05 00 00 00 93 29 00 B5
 (001.533398)  can0  545   [8]  12 00 00 00 00 01 00 00
 (001.536031)  can0  153   [8]  E4 49 00 FF 00 FF FF 80
 (001.537234)  can0  1F0   [8]  09 00 09 00 09 00 09 00
 (001.539042)  can0  1F3   [8]  00 80 00 FF 01 80 00 08
 (001.540110)  can0  1F5   [8]  02 83 00 00 80 E1 00 00
 (001.541325)  can0  316   [8]  05 00 00 00 93 29 00 B5
 (001.541773)  can0  545   [8]  12 00 00 00 00 01 00 00
 (001.543583)  can0  153   [8]  E4 49 00 FF 00 FF FF 80
 (001.544649)  can0  1F0   [8]  09 20 09 00 09 00 09 00
 (001.546388)  can0  1F3   [8]  00 80 00 FF 01 80 00 08
 (001.547461)  can0  1F5   [8]  02 83 00 00 80 F1 96 04
 (001.549406)  can0  338   [8]  00 00 00 00 00 00 00 00
 (001.550610)  can0  316   [8]  05 00 00 00 93 29 00 B5
 (001.552417)  can0  153   [8]  E4 49 00 FF 00 FF FF 80
 (001.553782)  can0  545   [8]  12 00 00 00 00 01 00 00
 (001.555097)  can0  1F5   [8]  02 83 00 00 80 01 00 00
 (001.557012)  can0  153   [8]  E4 49 00 FF 00 FF FF 80
 (001.558197)  can0  1F0   [8]  09 60 09 00 09 00 09 00
 (001.560008)  can0  1F3   [8]  00 80 00 FF 01 80 00 08
 (001.561371)  can0  338   [8]  00 00 00 00 00 00 00 00
 (001.563189)  can0  545   [8]  12 00 00 00 00 01 00 00
 (001.564402)  can0  1F5   [8]  02 83 00 00 80 11 00 00
 (001.565615)  can0  153   [8]  E4 49 00 FF 00 FF FF 80
 (001.566066)  can0  1F3   [8]  00 80 00 FF 01 80 00 08
 (001.569408)  can0  338   [8]  00 00 00 00 00 00 00 00
 (001.570629)  can0  316   [8]  05 00 00 00 93 29 00 B5
 (001.572432)  can0  545   [8]  12 00 00 00 00 01 00 00
 (001.573803)  can0  1F0   [8]  09 20 09 00 09 00 09 00
 (001.574998)  can0  1F5   [8]  02 83 00 00 80 21 00 00
 (001.578626)  can0  153   [8]  E4 49 00 FF 00 FF FF 80
 (001.579666)  can0  1F0   [8]  09 40 09 00 09 00 09 00
 (001.581461)  can0  338   [8]  00 00 00 00 00 00 00 00
 (001.582517)  can0  545   [8]  12 00 00 00 00 01 00 00
 (001.584302)  can0  1F5   [8]  02 83 00 00 80 31 00 00
 (001.585806)  can0  153   [8]  E4 49 00 FF 00 FF FF 80
 (001.586873)  can0  1F0   [8]  09 60 09 00 09 00 09 00
 (001.588071)  can0  1F3   [8]  00 80 00 FF 01 80 00 08
 (001.590185)  can0  338   [8]  00 00 00 00 00 00 00 00
 (001.591242)  can0  316   [8]  05 00 00 00 93 29 00 B5
 (001.592743)  can0  545   [8]  12 00 00 00 00 01 00 00
 (001.593533)  can0  153   [8]  E4 49 00 FF 00 FF FF 80
 (001.595655)  can0  1F3   [8]  00 80 00 FF 01 80 00 08
 (001.599044)  can0  153   [8]  E4 49 00 FF 00 FF FF 80
 (001.600236)  can0  1F0   [8]  09 20 09 00 09 00 09 00
 (001.602981)  can0  316   [8]  05 00 00 00 93 29 00 B5
 (001.603601)  can0  545   [8]  12 00 00 00 00 01 00 00
 (001.606063)  can0  153   [8]  E4 49 00 FF 00 FF FF 80
 (001.607271)  can0  1F0   [8]  09 40 09 00 09 00 09 00
 (001.609073)  can0  1F3   [8]  00 80 00 FF 01 80 00 08
 (001.610290)  can0  338   [8]  00 00 00 00 00 00 00 00
 (001.611949)  can0  1F5   [8]  02 83 00 00 80 61 00 00
 (001.613008)  can0  545   [8]  12 00 00 00 00 01 00 00
 (001.614216)  can0  153   [8]  E4 49 00 FF 00 FF FF 80
 (001.615567)  can0  1F3   [8]  00 80 00 FF 01 80 00 08
 (001.617500)  can0  615   [8]  00 00 00 11 03 00 00 00
 (001.618423)  can0  1F5   [8]  02 83 00 00 80 71 FB 7D
 (001.619649)  can0  338   [8]  00 00 00 00 00 00 00 00
 (001.620727)  can0  316   [8]  05 00 00 00 93 29 00 B5
 (001.621951)  can0  1F0   [8]  09 00 09 00 09 00 09 00
 (001.622402)  can0  545   [8]  12 00 00 00 00 01 00 00
 (001.627072)  can0  153   [8]  E4 49 00 FF 00 FF FF 80
 (001.628281)  can0  1F0   [8]  09 20 09 00 09 00 09 00
 (001.630094)  can0  1F3   [8]  00 80 00 FF 01 80 00 08
 (001.631463)  can0  1F5   [8]  02 83 00 00 80 81 00 00
 (001.633295)  can0  545   [8]  12 00 00 00 00 01 00 00
 (001.634342)  can0  153   [8]  E4 49 00 FF 00 FF FF 80
 (001.635415)  can0  1F0   [8]  09 40 09 00 09 00 09 00
 (001.636634)  can0  1F3   [8]  00 80 00 FF 01 80 00 08
 (001.637544)  can0  1F5   [8]  02 83 00 00 80 91 00 00
 (001.639949)  can0  338   [8]  00 00 00 00 00 00 00 00
 (001.641016)  can0  316   [8]  05 00 00 00 93 29 00 B5
 (001.642828)  can0  545   [8]  12 00 00 00 00 01 00 00
 (001.643281)  can0  1F3   [8]  00 80 00 FF 01 80 00 08
 (001.646769)  can0  1F5   [8]  02 83 00 00 80 A1 00 00
 (001.648088)  can0  153   [8]  E4 49 00 FF 00 FF FF 80
 (001.649314)  can0  1F0   [8]  09 00 09 00 09 00 09 00
 (001.651113)  can0  1F3   [8]  00 80 00 FF 01 80 00 08
 (001.652476)  can0  545   [8]  12 00 00 00 00 01 00 00
 (001.654206)  can0  1F5   [8]  02 83 00 00 80 B1 00 00
 (001.655417)  can0  1F0   [8]  09 20 09 00 09 00 09 00
 (001.656622)  can0  153   [8]  E4 49 00 FF 00 FF FF 80
 (001.657372)  can0  1F3   [8]  00 80 00 FF 01 80 00 08
 (001.659399)  can0  338   [8]  00 00 00 00 00 00 00 00
 (001.660593)  can0  316   [8]  05 00 00 00 93 29 00 B5
 (001.662393)  can0  545   [8]  12 00 00 00 00 01 00 00
 (001.663749)  can0  153   [8]  E4 49 00 FF 00 FF FF 80
 (001.665854)  can0  1F3   [8]  00 80 00 FF 01 80 00 08
 (001.666623)  can0  1F5   [8]  02 83 00 00 80 C1 00 00
 (001.669701)  can0  153   [8]  E4 49 00 FF 00 FF FF 80
 (001.670755)  can0  1F0   [8]  09 60 09 00 09 00 09 00
 (001.672550)  can0  338   [8]  00 00 00 00 00 00 00 00
 (001.673613)  can0  545   [8]  12 00 00 00 00 01 00 00
 (001.675410)  can0  1F5   [8]  02 83 00 00 80 D1 00 00
 (001.676628)  can0  1F0   [8]  09 00 09 00 09 00 09 00
 (001.678395)  can0  153   [8]  E4 49 00 FF 00 FF FF 80
 (001.679442)  can0  1F3   [8]  00 80 00 FF 01 80 00 08
 (001.680644)  can0  338   [8]  00 00 00 00 00 00 00 00
 (001.681401)  can0  545   [8]  12 00 00 00 00 01 00 00
 (001.683487)  can0  1F5   [8]  02 83 00 00 80 E1 00 00
 (001.684845)  can0  153   [8]  E4 49 00 FF 00 FF FF 80
 (001.686651)  can0  1F3   [8]  00 80 00 FF 01 80 00 08
 (001.689392)  can0  338   [8]  00 00 00 00 00 00 00 00
 (001.690584)  can0  316   [8]  05 00 00 00 93 29 00 B5
 (001.692379)  can0  153   [8]  E4 49 00 FF 00 FF FF 80
 (001.693732)  can0  1F5   [8]  02 83 00 00 80 F1 96 04
 (001.697094)  can0  153   [8]  E4 49 00 FF 00 FF FF 80
 (001.698275)  can0  1F0   [8]  09 60 09 00 09 00 09 00
 (001.700097)  can0  1F3   [8]  00 80 00 FF 01 80 00 08
 (001.701455)  can0  338   [8]  00 00 00 00 00 00 00 00
 (001.703272)  can0  1F5   [8]  02 83 00 00 80 01 00 00
 (001.704627)  can0  153   [8]  E0 49 00 FF 00 FF FF 80
 (001.705818)  can0  1F0   [8]  09 00 09 00 09 00 09 00
 (001.707650)  can0  1F3   [8]  C0 02 00 FF 41 7F 00 08
 (001.709191)  can0  1F5   [8]  02 83 00 00 80 11 00 00
 (001.710383)  can0  338   [8]  00 00 00 00 00 00 00 00
 (001.712181)  can0  329   [8]  11 70 D0 01 00 00 00 00
 (001.713535)  can0  545   [8]  12 00 00 00 00 01 00 00
 (001.715358)  can0  1F3   [8]  C0 02 00 FF 41 7F 00 08
 (001.718721)  can0  153   [8]  00 48 00 FF 00 FF FF 80
 (001.719913)  can0  1F0   [8]  09 40 09 00 09 00 09 00
 (001.721557)  can0  1F5   [8]  02 83 00 00 80 21 00 00
 (001.722614)  can0  545   [8]  12 00 00 00 00 01 00 00
 (001.725718)  can0  153   [8]  00 48 00 FF 00 FF FF 80
 (001.726978)  can0  1F0   [8]  09 60 09 00 09 00 09 00
 (001.728782)  can0  1F3   [8]  C0 02 00 FF 41 7F 00 08
 (001.730137)  can0  1F5   [8]  02 83 00 00 80 31 00 00
 (001.731329)  can0  338   [8]  00 00 00 00 00 00 00 00
 (001.732424)  can0  545   [8]  12 00 00 00 00 01 00 00
 (001.734533)  can0  153   [8]  00 48 00 FF 00 FF FF 80
 (001.735288)  can0  1F3   [8]  C0 02 00 FF 41 7F 00 08
 (001.737991)  can0  1F5   [8]  02 83 00 00 80 41 00 00
 (001.739384)  can0  338   [8]  00 00 00 00 00 00 00 00
 (001.740582)  can0  316   [8]  05 00 00 00 93 29 00 B5
 (001.742192)  can0  1F0   [8]  09 20 09 00 09 00 09 00
 (001.743240)  can0  545   [8]  12 00 00 00 00 01 00 00
 (001.745434)  can0  1F5   [8]  02 83 00 00 80 51 00 00
 (001.747355)  can0  153   [8]  00 48 00 FF 00 FF FF 80
 (001.748538)  can0  1F0   [8]  09 40 09 00 09 00 09 00
 (001.750172)  can0  1F3   [8]  C0 02 00 FF 41 7F 00 08
 (001.751213)  can0  338   [8]  00 00 00 00 00 00 00 00
 (001.752860)  can0  545   [8]  12 00 00 00 00 01 00 00
 (001.753897)  can0  1F0   [8]  09 60 09 00 09 00 09 00
 (001.755086)  can0  153   [8]  00 48 00 FF 00 FF FF 80
 (001.755843)  can0  1F3   [8]  C0 02 00 FF 41 7F 00 08
 (001.757773)  can0  1F5   [8]  02 83 00 00 80 61 00 00
 (001.759557)  can0  338   [8]  00 00 00 00 00 00 00 00
 (001.760451)  can0  316   [8]  05 00 00 00 93 29 00 B5
 (001.761642)  can0  545   [8]  12 00 00 00 00 01 00 00
 (001.762394)  can0  1F3   [8]  C0 02 00 FF 41 7F 00 08
 (001.764321)  can0  1F5   [8]  02 83 00 00 80 71 FB 7D
 (001.768297)  can0  153   [8]  00 48 00 FF 00 FF FF 80
 (001.769327)  can0  1F0   [8]  09 20 09 00 09 00 09 00
 (001.771082)  can0  1F3   [8]  C0 02 00 FF 41 7F 00 08
 (001.771969)  can0  545   [8]  12 00 00 00 00 01 00 00
 (001.773468)  can0  1F5   [8]  02 83 00 00 80 81 00 00
 (001.775150)  can0  153   [8]  00 48 00 FF 00 FF FF 80
 (001.776347)  can0  1F0   [8]  09 40 09 00 09 00 09 00
 (001.778151)  can0  1F3   [8]  C0 02 00 FF 41 7F 00 08
 (001.779388)  can0  338   [8]  00 00 00 00 00 00 00 00
 (001.780566)  can0  316   [8]  05 00 00 00 93 29 00 B5
 (001.782188)  can0  545   [8]  12 00 00 00 00 01 00 00
 (001.783223)  can0  153   [8]  00 48 00 FF 00 FF FF 80
 (001.784881)  can0  1F5   [8]  02 83 00 00 80 91 00 00
 (001.789334)  can0  153   [8]  00 48 00 FF 00 FF FF 80
 (001.790386)  can0  1F0   [8]  09 00 09 00 09 00 09 00
 (001.792179)  can0  329   [8]  40 70 D0 01 00 00 00 00
 (001.793237)  can0  545   [8]  12 00 00 00 00 01 00 00
 (001.795017)  can0  1F5   [8]  02 83 00 00 80 A1 00 00
 (001.796538)  can0  153   [8]  00 48 00 FF 00 FF FF 80
 (001.797599)  can0  1F0   [8]  09 20 09 00 09 00 09 00
 (001.798799)  can0  1F3   [8]  C0 02 00 FF 41 7F 00 08
 (001.799690)  can0  338   [8]  00 00 00 00 00 00 00 00
 (001.801808)  can0  316   [8]  05 00 00 00 93 29 00 B5
 (001.802576)  can0  545   [8]  12 00 00 00 00 01 00 00
 (001.803789)  can0  153   [8]  00 48 00 FF 00 FF FF 80
 (001.804851)  can0  1F3   [8]  C0 02 00 FF 41 7F 00 08
 (001.809393)  can0  338   [8]  00 00 00 00 00 00 00 00
 (001.810580)  can0  316   [8]  05 00 00 00 93 29 00 B5
 (001.812355)  can0  1F0   [8]  09 60 09 00 09 00 09 00
 (001.813696)  can0  545   [8]  12 00 00 00 00 01 00 00
 (001.815206)  can0  613   [8]  87 7E 0A DB 2C 00 00 00
 (001.816411)  can0  615   [8]  00 00 00 11 03 00 00 00
 (001.817639)  can0  153   [8]  00 48 00 FF 00 FF FF 80
 (001.818735)  can0  1F0   [8]  09 00 09 00 09 00 09 00
 (001.820842)  can0  1F3   [8]  C0 02 00 FF 41 7F 00 08
 (001.821900)  can0  338   [8]  00 00 00 00 00 00 00 00
 (001.823116)  can0  545   [8]  12 00 00 00 00 01 00 00
 (001.824314)  can0  1F0   [8]  09 20 09 00 09 00 09 00
 (001.826171)  can0  153   [8]  00 48 00 FF 00 FF FF 80
 (001.827241)  can0  1F3   [8]  C0 02 00 FF 41 7F 00 08
 (001.828612)  can0  1F5   [8]  02 83 00 00 80 E1 00 00
 (001.829824)  can0  316   [8]  05 00 00 00 93 29 00 B5
 (001.831617)  can0  338   [8]  00 00 00 00 00 00 00 00
 (001.832673)  can0  545   [8]  12 00 00 00 00 01 00 00
 (001.834385)  can0  1F3   [8]  C0 02 00 FF 41 7F 00 08
 (001.836662)  can0  1F5   [8]  02 83 00 00 80 F1 96 04
 (001.838591)  can0  153   [8]  00 48 00 FF 00 FF FF 80
 (001.839331)  can0  1F0   [8]  09 60 09 00 09 00 09 00
 (001.840516)  can0  338   [8]  00 00 00 00 00 00 00 00
 (001.841565)  can0  545   [8]  12 00 00 00 00 01 00 00
 (001.844766)  can0  153   [8]  00 48 00 FF 00 FF FF 80
 (001.845973)  can0  1F0   [8]  09 00 09 00 09 00 09 00
 (001.847856)  can0  1F3   [8]  C0 02 00 FF 41 7F 00 08
 (001.849253)  can0  1F5   [8]  02 83 00 00 80 01 00 00
 (001.850452)  can0  338   [8]  00 00 00 00 00 00 00 00
 (001.851521)  can0  329   [8]  84 70 D0 01 00 00 00 00
 (001.853681)  can0  545   [8]  12 00 00 00 00 01 00 00
 (001.854468)  can0  1F3   [8]  C0 02 00 FF 41 7F 00 08
 (001.855715)  can0  1F5   [8]  02 83 00 00 80 11 00 00
 (001.858772)  can0  153   [8]  00 48 00 FF 00 FF FF 80
 (001.859966)  can0  1F0   [8]  09 40 09 00 09 00 09 00
 (001.861762)  can0  316   [8]  05 00 00 00 93 29 00 B5
 (001.863114)  can0  545   [8]  12 00 00 00 00 01 00 00
 (001.864742)  can0  1F5   [8]  02 83 00 00 80 21 00 00
 (001.865948)  can0  1F0   [8]  09 60 09 00 09 00 09 00
 (001.867130)  can0  153   [8]  00 48 00 FF 00 FF FF 80
 (001.867889)  can0  1F3   [8]  C0 02 00 FF 41 7F 00 08
 (001.869846)  can0  338   [8]  00 00 00 00 00 00 00 00
 (001.871042)  can0  316   [8]  05 00 00 00 93 29 00 B5
 (001.872698)  can0  545   [8]  12 00 00 00 00 01 00 00
 (001.873748)  can0  153   [8]  00 48 00 FF 00 FF FF 80
 (001.874951)  can0  1F5   [8]  02 83 00 00 80 31 00 00
 (001.879377)  can0  338   [8]  00 00 00 00 00 00 00 00
 (001.880560)  can0  316   [8]  05 00 00 00 93 29 00 B5
 (001.882359)  can0  1F0   [8]  09 20 09 00 09 00 09 00
 (001.883706)  can0  545   [8]  12 00 00 00 00 01 00 00
 (001.884897)  can0  1F5   [8]  02 83 00 00 80 41 00 00
 (001.886787)  can0  153   [8]  00 48 00 FF 00 FF FF 80
 (001.887975)  can0  1F0   [8]  09 40 09 00 09 00 09 00
 (001.889786)  can0  1F3   [8]  C0 02 00 FF 41 7F 00 08
 (001.891146)  can0  338   [8]  00 00 00 00 00 00 00 00
 (001.892820)  can0  545   [8]  12 00 00 00 00 01 00 00
 (001.893879)  can0  1F5   [8]  02 83 00 00 80 51 00 00
 (001.895094)  can0  153   [8]  00 48 00 FF 00 FF FF 80
 (001.896180)  can0  1F3   [8]  C0 02 00 FF 41 7F 00 08
 (001.899397)  can0  338   [8]  00 00 00 00 00 00 00 00
 (001.900598)  can0  316   [8]  05 00 00 00 93 29 00 B5
 (001.902458)  can0  545   [8]  12 00 00 00 00 01 00 00
 (001.903358)  can0  1F3   [8]  C0 02 00 FF 41 7F 00 08
 (001.904398)  can0  1F5   [8]  02 83 00 00 80 61 00 00
 (001.907802)  can0  153   [8]  00 48 00 FF 00 FF FF 80
 (001.909007)  can0  1F0   [8]  09 20 09 00 09 00 09 00
 (001.910655)  can0  1F3   [8]  C0 02 00 FF 41 7F 00 08
 (001.911706)  can0  316   [8]  05 00 00 00 93 29 00 B5
 (001.912915)  can0  545   [8]  12 00 00 00 00 01 00 00
 (001.914802)  can0  153   [8]  00 48 00 FF 00 FF FF 80
 (001.916011)  can0  1F0   [8]  09 40 09 00 09 00 09 00
 (001.917658)  can0  1F3   [8]  C0 02 00 FF 41 7F 00 08
 (001.919915)  can0  338   [8]  00 00 00 00 00 00 00 00
 (001.920978)  can0  316   [8]  05 00 00 00 93 29 00 B5
 (001.922794)  can0  545   [8]  12 00 00 00 00 01 00 00
 (001.923859)  can0  153   [8]  00 48 00 FF 00 FF FF 80
 (001.925705)  can0  1F3   [8]  C0 02 00 FF 41 7F 00 08
 (001.927930)  can0  1F5   [8]  02 83 00 00 80 91 00 00
 (001.929134)  can0  1F0   [8]  09 00 09 00 09 00 09 00
 (001.930341)  can0  153   [8]  00 48 00 FF 00 FF FF 80
 (001.931102)  can0  329   [8]  D1 70 D0 01 00 00 00 00
 (001.933230)  can0  545   [8]  12 00 00 00 00 01 00 00
 (001.935838)  can0  153   [8]  00 48 00 FF 00 FF FF 80
 (001.937054)  can0  1F0   [8]  09 20 09 00 09 00 09 00
 (001.938875)  can0  1F3   [8]  C0 02 00 FF 41 7F 00 08
 (001.940245)  can0  1F5   [8]  02 83 00 00 80 A1 00 00
 (001.941469)  can0  316   [8]  05 00 00 00 93 29 00 B5
 (001.941920)  can0  545   [8]  12 00 00 00 00 01 00 00
 (001.943428)  can0  153   [8]  00 48 00 FF 00 FF FF 80
 (001.944794)  can0  1F0   [8]  09 40 09 00 09 00 09 00
 (001.946634)  can0  1F3   [8]  C0 02 00 FF 41 7F 00 08
 (001.947711)  can0  1F5   [8]  02 83 00 00 80 B1 00 00
 (001.949380)  can0  338   [8]  00 00 00 00 00 00 00 00
 (001.950588)  can0  316   [8]  05 00 00 00 93 29 00 B5
 (001.952405)  can0  1F0   [8]  09 60 09 00 09 00 09 00
 (001.953775)  can0  545   [8]  12 00 00 00 00 01 00 00
 (001.955971)  can0  1F5   [8]  02 83 00 00 80 C1 00 00
 (001.957173)  can0  1F0   [8]  09 00 09 00 09 00 09 00
 (001.958438)  can0  153   [8]  00 48 00 FF 00 FF FF 80
 (001.959244)  can0  1F3   [8]  C0 02 00 FF 41 7F 00 08
 (001.961384)  can0  338   [8]  00 00 00 00 00 00 00 00
 (001.961835)  can0  329   [8]  11 70 D0 01 00 00 00 00
 (001.963562)  can0  545   [8]  12 00 00 00 00 01 00 00
 (001.964794)  can0  153   [8]  00 48 00 FF 00 FF FF 80
 (001.966664)  can0  1F3   [8]  C0 02 00 FF 41 7F 00 08
 (001.967729)  can0  1F5   [8]  02 83 00 00 80 D1 00 00
 (001.969381)  can0  338   [8]  00 00 00 00 00 00 00 00
 (001.970587)  can0  316   [8]  05 00 00 00 93 29 00 B5
 (001.972389)  can0  545   [8]  12 00 00 00 00 01 00 00
 (001.973284)  can0  1F3   [8]  C0 02 00 FF 41 7F 00 08
 (001.974509)  can0  1F5   [8]  02 83 00 00 80 E1 00 00
 (001.977857)  can0  153   [8]  00 48 00 FF 00 FF FF 80
 (001.979065)  can0  1F0   [8]  09 60 09 00 09 00 09 00
 (001.980878)  can0  1F3   [8]  C0 02 00 FF 41 7F 00 08
 (001.982250)  can0  329   [8]  11 70 D0 01 00 00 00 00
 (001.983470)  can0  545   [8]  12 00 00 00 00 01 00 00
 (001.983921)  can0  1F5   [8]  02 83 00 00 80 F1 96 04
 (001.985731)  can0  153   [8]  00 48 00 FF 00 FF FF 80
 (001.986793)  can0  1F0   [8]  09 00 09 00 09 00 09 00
 (001.988619)  can0  1F3   [8]  C0 02 00 FF 41 7F 00 08
 (001.989985)  can0  338   [8]  00 00 00 00 00 00 00 00
 (001.991046)  can0  316   [8]  05 00 00 00 93 29 00 B5
 (001.992874)  can0  545   [8]  12 00 00 00 00 01 00 00
 (001.993323)  can0  153   [8]  00 48 00 FF 00 FF FF 80
 (001.995136)  can0  1F5   [8]  02 83 00 00 80 01 00 00
 (001.999464)  can0  153   [8]  00 48 00 FF 00 FF FF 80
 (002.000521)  can0  1F0   [8]  09 40 09 00 09 00 09 00
 (002.002312)  can0  338   [8]  00 00 00 00 00 00 00 00
 (002.003362)  can0  1F5   [8]  02 83 00 00 80 11 00 00
 (002.006492)  can0  153   [8]  00 48 00 FF 00 FF FF 80
 (002.007557)  can0  1F0   [8]  09 60 09 00 09 00 09 00
 (002.009374)  can0  1F3   [8]  C0 02 00 FF 41 7F 00 08
 (002.010585)  can0  338   [8]  00 00 00 00 00 00 00 00
 (002.012395)  can0  545   [8]  12 00 00 00 00 01 00 00
 (002.012844)  can0  1F5   [8]  02 83 00 00 80 21 00 00
 (002.014059)  can0  1F0   [8]  09 00 09 00 09 00 09 00
 (002.015428)  can0  1F3   [8]  C0 02 00 FF 41 7F 00 08
 (002.017231)  can0  615   [8]  00 00 00 11 03 00 00 00
 (002.019042)  can0  1F5   [8]  02 83 00 00 80 31 00 00
 (002.020237)  can0  338   [8]  00 00 00 00 00 00 00 00
 (002.022168)  can0  329   [8]  11 70 D0 01 00 00 00 00
 (002.023532)  can0  545   [8]  12 00 00 00 00 01 00 00
 (002.026898)  can0  153   [8]  00 48 00 FF 00 FF FF 80
 (002.028092)  can0  1F0   [8]  09 40 09 00 09 00 09 00
 (002.029903)  can0  1F3   [8]  C0 02 00 FF 41 7F 00 08
 (002.031285)  can0  1F5   [8]  02 83 00 00 80 41 00 00
 (002.033074)  can0  545   [8]  12 00 00 00 00 01 00 00
 (002.034730)  can0  153   [8]  00 48 00 FF 00 FF FF 80
 (002.035791)  can0  1F0   [8]  09 60 09 00 09 00 09 00
 (002.036738)  can0  1F3   [8]  C0 02 00 FF 41 7F 00 08
 (002.037939)  can0  1F5   [8]  02 83 00 00 80 51 00 00
 (002.040055)  can0  338   [8]  00 00 00 00 00 00 00 00
 (002.041107)  can0  316   [8]  05 00 00 00 93 29 00 B5
